! 4/11/2025 3:29:38 PM
! C:\ANRITSUVNA\LELEC2350\LAB1_2025\GROUP1_30.S2P
! CHANNEL.1
! TR.MEASUREMENT
! CORRECTED.DATA
! RF.CORRECTION: FULL.TWO.PORT.CAL.PORT.1.2
! AVERAGING.OFF
! IF.BANDWIDTH: 300HZ
! SWEEPTYPE:  FREQ.SWEEP(Linear)
! Reference Plane Port Info
! PORT:              PORT1              PORT2             
! DISTANCE:          0  m               0  m              
! TIME:              0  s               0  s              
! PHASE.OFFSET:      0 °                0 °               
! LOSS:              0  dB              0  dB             
! REF.LOSS:          0  dB              0  dB             
! REF.FREQ:          0  Hz              0  Hz             
! Power Info
! POWER:             5  dBm             5  dBm            
! EFF.POWER:         5  dBm             5  dBm            
# GHZ S RI R 50.0
! FREQ.GHZ         S11RE         S11IM         S21RE         S21IM         S12RE         S12IM         S22RE         S22IM         
!; PortSelection: Port_12
   7.000000000    -0.0772867   -0.0232155     0.0098652   -0.0106406     0.0100730   -0.0105428    -0.0291604   -0.1071765 
   7.020000000    -0.0803269    0.0427461    -0.0089144   -0.0097941    -0.0087829   -0.0102184    -0.0311162   -0.1330747 
   7.040000000    -0.0284625    0.0687239    -0.0113797    0.0087727    -0.0116828    0.0083660    -0.0800107   -0.1233156 
   7.060000000    -0.0367379    0.0396644     0.0100205    0.0113489     0.0100588    0.0115514    -0.0670414   -0.0763345 
   7.080000000    -0.0029845    0.0675794     0.0093963   -0.0093949     0.0096263   -0.0096965    -0.0413658   -0.0922309 
   7.100000000     0.0771873    0.0703502    -0.0071017   -0.0092482    -0.0072205   -0.0097251    -0.0625069   -0.1158172 
   7.120000000     0.0801735    0.0389236    -0.0106295    0.0054723    -0.0111876    0.0059017    -0.0747872   -0.0970739 
   7.140000000     0.0878900    0.0080869     0.0055936    0.0120293     0.0060476    0.0124406    -0.0997787   -0.0860387 
   7.160000000     0.0907058   -0.0748536     0.0117053   -0.0059062     0.0119538   -0.0062562    -0.0792172   -0.0724227 
   7.180000000     0.0098512   -0.1178710    -0.0050371   -0.0110181    -0.0047138   -0.0112003    -0.0724519   -0.0894854 
   7.200000000    -0.0482127   -0.0996842    -0.0118475    0.0026837    -0.0119653    0.0026615    -0.0908091   -0.0975172 
   7.220000000    -0.0475377   -0.0764732     0.0022714    0.0143475     0.0028295    0.0142855    -0.1365075   -0.1005662 
   7.240000000    -0.0436652   -0.0429010     0.0151679   -0.0041530     0.0148872   -0.0044358    -0.1337985   -0.0450266 
   7.260000000    -0.0767325   -0.0206524    -0.0048415   -0.0137994    -0.0050289   -0.0136589    -0.0882219   -0.0482687 
   7.280000000    -0.1231016    0.0219518    -0.0124018    0.0034504    -0.0125965    0.0035246    -0.1112106   -0.0759692 
   7.300000000    -0.0777412    0.0716351     0.0019626    0.0131824     0.0021263    0.0134729    -0.1580524   -0.0618487 
   7.320000000    -0.0105098    0.0669488     0.0140882   -0.0029190     0.0140565   -0.0029854    -0.1547288   -0.0139976 
   7.340000000     0.0130616    0.0625623    -0.0039348   -0.0122651    -0.0038566   -0.0122744    -0.1063383   -0.0134177 
   7.360000000     0.0263577    0.0153612    -0.0098957    0.0025163    -0.0099337    0.0024012    -0.1330404   -0.0384987 
   7.380000000     0.0145935    0.0036399    -0.0002390    0.0095421    -0.0002659    0.0096020    -0.1478344   -0.0418610 
   7.400000000     0.0510596    0.0386341     0.0106818    0.0019280     0.0109440    0.0017627    -0.1580963   -0.0094579 
   7.420000000     0.0569019   -0.0171741     0.0017201   -0.0112449     0.0017215   -0.0114581    -0.1597737    0.0184500 
   7.440000000     0.0121246   -0.0427404    -0.0105208   -0.0021238    -0.0105873   -0.0021948    -0.1417717    0.0133215 
   7.460000000     0.0153753   -0.0293142    -0.0037986    0.0100115    -0.0037544    0.0099177    -0.1430769    0.0120388 
   7.480000000    -0.0103614   -0.0467561     0.0110023    0.0057145     0.0110160    0.0056470    -0.1729529   -0.0026994 
   7.500000000    -0.0278641   -0.0477225     0.0049596   -0.0125440     0.0051508   -0.0126613    -0.1801102    0.0615965 
   7.520000000    -0.0042576   -0.0710762    -0.0121189   -0.0038365    -0.0122422   -0.0036794    -0.1285699    0.0662400 
   7.540000000    -0.0341383   -0.0634235    -0.0035728    0.0103551    -0.0034928    0.0105808    -0.1361489    0.0570598 
   7.560000000    -0.0733065   -0.0267388     0.0090065    0.0048393     0.0092076    0.0048042    -0.1544241    0.0293859 
   7.580000000    -0.1238023    0.0045346     0.0058640   -0.0094103     0.0058818   -0.0093888    -0.1663532    0.0912769 
   7.600000000    -0.1011698    0.0701489    -0.0089609   -0.0050974    -0.0092091   -0.0048770    -0.1333353    0.0958964 
   7.620000000    -0.0471603    0.0924318    -0.0049983    0.0068367    -0.0048011    0.0068296    -0.1346504    0.0968255 
   7.640000000    -0.0130879    0.1138880     0.0049090    0.0070771     0.0047515    0.0070034    -0.1259511    0.0769976 
   7.660000000     0.0838742    0.0674822     0.0094110   -0.0049408     0.0096525   -0.0048525    -0.1504290    0.0905379 
   7.680000000     0.0732162    0.0122105    -0.0060096   -0.0102145    -0.0061304   -0.0102252    -0.1475374    0.1394622 
   7.700000000     0.0719143    0.0293394    -0.0096510    0.0058696    -0.0094016    0.0057804    -0.1175090    0.1449549 
   7.720000000     0.0659014   -0.0734403     0.0045534    0.0101617     0.0042037    0.0100502    -0.1055215    0.1179923 
   7.740000000     0.0060831   -0.0952565     0.0119114   -0.0035997     0.0120805   -0.0035027    -0.1211839    0.1286056 
   7.760000000     0.0086393   -0.0596067    -0.0050745   -0.0130881    -0.0052367   -0.0133670    -0.1343584    0.1684538 
   7.780000000    -0.0353244   -0.0803153    -0.0123775    0.0063540    -0.0122091    0.0065675    -0.0919776    0.1639645 
   7.800000000    -0.0893928   -0.0664998     0.0056580    0.0104656     0.0057532    0.0105710    -0.0651128    0.1594126 
   7.820000000    -0.0903931   -0.0205895     0.0099964   -0.0033364     0.0102255   -0.0034052    -0.0802755    0.1602650 
   7.840000000    -0.0924504    0.0337370    -0.0026550   -0.0114982    -0.0027298   -0.0116091    -0.0948053    0.1658818 
   7.860000000    -0.0522846    0.0756135    -0.0114464    0.0032589    -0.0113400    0.0031916    -0.0789579    0.2042071 
   7.880000000    -0.0094313    0.0331872     0.0025085    0.0096402     0.0024985    0.0096493    -0.0474602    0.1764543 
   7.900000000    -0.0143021    0.0364827     0.0089943    0.0002199     0.0090941    0.0002737    -0.0346899    0.1914371 
   7.920000000    -0.0056461    0.0620588     0.0023181   -0.0112149     0.0023108   -0.0110262    -0.0466851    0.1843138 
   7.940000000     0.0215932    0.0338435    -0.0126084   -0.0021836    -0.0126332   -0.0023469    -0.0496588    0.1946181 
   7.960000000     0.0865943   -0.0017175    -0.0016250    0.0126092    -0.0018788    0.0126683     0.0019465    0.2206258 
   7.980000000     0.0790895   -0.0462981     0.0120091    0.0024658     0.0121651    0.0027523     0.0232174    0.2210366 
   8.000000000    -0.0239975   -0.0445190     0.0040079   -0.0126006     0.0041318   -0.0126506     0.0167123    0.1700877 
   8.020000000    -0.0263913   -0.0295192    -0.0139677   -0.0039348    -0.0142332   -0.0040255     0.0175834    0.1929535 
   8.040000000    -0.0095666   -0.0731468    -0.0020995    0.0142444    -0.0023612    0.0143801     0.0363521    0.2099822 
   8.060000000    -0.0499718   -0.0460482     0.0122414    0.0016208     0.0126719    0.0016403     0.0615012    0.2003475 
   8.080000000    -0.0545135   -0.0464680     0.0026948   -0.0099638     0.0025047   -0.0104745     0.0691002    0.1756772 
   8.100000000    -0.0941272   -0.0354566    -0.0100526   -0.0048031    -0.0104723   -0.0047132     0.0405576    0.1598869 
   8.120000000    -0.0971728    0.0740709    -0.0047808    0.0108879    -0.0047854    0.0111477     0.0570935    0.1987857 
   8.140000000    -0.0445383    0.1105522     0.0097962    0.0043569     0.0100076    0.0042707     0.0838973    0.1998179 
   8.160000000    -0.0196014    0.0664954     0.0053118   -0.0076449     0.0049955   -0.0076704     0.1050682    0.1761398 
   8.180000000     0.0274564    0.0573958    -0.0074537   -0.0080787    -0.0071993   -0.0078193     0.1027373    0.1424653 
   8.200000000     0.0666921    0.0351900    -0.0089761    0.0086937    -0.0089605    0.0085263     0.0923313    0.1738050 
   8.220000000     0.0418661    0.0237735     0.0091305    0.0084444     0.0093069    0.0085368     0.1262298    0.1822631 
   8.240000000     0.0815399   -0.0113546     0.0080298   -0.0081775     0.0078172   -0.0083272     0.1632386    0.1437759 
   8.260000000     0.1108319   -0.0851618    -0.0073343   -0.0087232    -0.0072761   -0.0088468     0.1358689    0.1209535 
   8.280000000     0.0314483   -0.1088378    -0.0095389    0.0072689    -0.0097756    0.0073130     0.1187859    0.1327092 
   8.300000000    -0.0592265   -0.1070099     0.0075804    0.0092337     0.0078670    0.0094218     0.1594238    0.1303038 
   8.320000000    -0.0820911   -0.0743297     0.0083128   -0.0069700     0.0082447   -0.0071797     0.1410870    0.1230085 
   8.340000000    -0.0682600   -0.0447676    -0.0053864   -0.0077402    -0.0055335   -0.0077172     0.1499947    0.1084486 
   8.360000000    -0.1257702   -0.0569641    -0.0083473    0.0036600    -0.0083033    0.0038967     0.1655804    0.0926822 
   8.380000000    -0.1224824    0.0003791     0.0031136    0.0091128     0.0031247    0.0089016     0.1567906    0.0913550 
   8.400000000    -0.0726148    0.0289599     0.0092147   -0.0023437     0.0089838   -0.0022980     0.1485056    0.1048668 
   8.420000000    -0.0717199    0.1138584    -0.0013580   -0.0091474    -0.0010110   -0.0089792     0.1990444    0.0954815 
   8.440000000    -0.0129485    0.1181715    -0.0097236   -0.0004463    -0.0099116   -0.0007740     0.1910115    0.0523059 
   8.460000000    -0.0292325    0.0500016    -0.0007705    0.0113549    -0.0008504    0.0114931     0.1635221    0.0351921 
   8.480000000     0.0216033    0.0749399     0.0113059    0.0006261     0.0115963    0.0006072     0.1638765    0.0772921 
   8.500000000     0.0668265    0.0277466     0.0008702   -0.0111134     0.0007588   -0.0113469     0.1997963    0.0389333 
   8.520000000     0.0339435    0.0004302    -0.0109278   -0.0019587    -0.0111439   -0.0017557     0.2033257   -0.0094060 
   8.540000000     0.0645485   -0.0281642    -0.0024311    0.0116609    -0.0021396    0.0116890     0.1723191    0.0132650 
   8.560000000     0.0306901   -0.0224884     0.0114082    0.0020675     0.0114583    0.0018318     0.1579273    0.0143776 
   8.580000000     0.0202573   -0.0130072     0.0020958   -0.0102575     0.0018465   -0.0102621     0.1699818   -0.0123493 
   8.600000000    -0.0203068   -0.0799830    -0.0090563   -0.0035662    -0.0089385   -0.0033843     0.1873583    0.0128198 
   8.620000000    -0.0563809   -0.0311793    -0.0051261    0.0092255    -0.0050615    0.0090376     0.1804719   -0.0123958 
   8.640000000    -0.0410764    0.0016224     0.0096696    0.0056136     0.0094446    0.0057491     0.1688403   -0.0411431 
   8.660000000    -0.0791138   -0.0108185     0.0056241   -0.0091297     0.0057824   -0.0091238     0.1571724   -0.0296463 
   8.680000000    -0.0483672    0.0189054    -0.0081766   -0.0066637    -0.0082539   -0.0067557     0.1949122   -0.0276118 
   8.700000000     0.0191701    0.0123809    -0.0080485    0.0078648    -0.0081428    0.0079535     0.1918135   -0.0689831 
   8.720000000    -0.0236629    0.0309789     0.0086950    0.0092306     0.0087747    0.0092459     0.1345852   -0.1009530 
   8.740000000    -0.0173557    0.0795769     0.0087079   -0.0090765     0.0086909   -0.0093334     0.1331203   -0.0715841 
   8.760000000     0.0188557    0.0107808    -0.0081946   -0.0087457    -0.0083664   -0.0086655     0.1730916   -0.0724596 
   8.780000000     0.0017491    0.0254767    -0.0093477    0.0075550    -0.0092385    0.0075881     0.1287758   -0.1030416 
   8.800000000     0.0299301    0.0081090     0.0078736    0.0101455     0.0080031    0.0099353     0.1023249   -0.1186545 
   8.820000000     0.0127404   -0.0831595     0.0090244   -0.0078308     0.0089340   -0.0079974     0.1352334   -0.0893321 
   8.840000000    -0.0165097   -0.0401431    -0.0065783   -0.0085248    -0.0065933   -0.0083918     0.1073534   -0.1055150 
   8.860000000    -0.0021477    0.0293015    -0.0085695    0.0048304    -0.0083737    0.0047848     0.1144210   -0.1176086 
   8.880000000    -0.0249202   -0.0276633     0.0035969    0.0100759     0.0034895    0.0100755     0.1321596   -0.1283575 
   8.900000000    -0.0573886   -0.0607393     0.0105556   -0.0038590     0.0105081   -0.0037074     0.1017901   -0.1524851 
   8.920000000    -0.0692908   -0.0333015    -0.0030878   -0.0101267    -0.0029549   -0.0101473     0.0662881   -0.1241049 
   8.940000000    -0.1050023    0.0356960    -0.0101144    0.0014588    -0.0100965    0.0014112     0.0877179   -0.1377851 
   8.960000000    -0.0654416    0.0728619     0.0000460    0.0115596    -0.0000343    0.0116761     0.0838205   -0.1629310 
   8.980000000    -0.0193095    0.0472711     0.0130911   -0.0004607     0.0131670   -0.0004327     0.0577855   -0.1933571 
   9.000000000    -0.0130096    0.0488354    -0.0015065   -0.0129585    -0.0014972   -0.0129953     0.0052530   -0.1439079 
   9.020000000    -0.0330496    0.0603210    -0.0115009    0.0013356    -0.0115234    0.0013583     0.0396888   -0.1457870 
   9.040000000    -0.0101242    0.0826640    -0.0001334    0.0108403    -0.0001731    0.0108576     0.0384362   -0.1735407 
   9.060000000     0.0747283    0.0729275     0.0117138    0.0013646     0.0117118    0.0013902     0.0157814   -0.1493560 
   9.080000000     0.0689922    0.0246289     0.0006625   -0.0121890     0.0007873   -0.0121923    -0.0164653   -0.1918288 
   9.100000000     0.0209789   -0.0019898    -0.0107990   -0.0004825    -0.0107777   -0.0005498    -0.0047091   -0.1453381 
   9.120000000     0.0607055   -0.0391738    -0.0013410    0.0093036    -0.0015021    0.0092076    -0.0012531   -0.1379642 
   9.140000000     0.0493242   -0.0499930     0.0086230    0.0035993     0.0086236    0.0038278    -0.0118013   -0.1836690 
   9.160000000     0.0195999   -0.0047240     0.0044542   -0.0098512     0.0047395   -0.0098269    -0.0497243   -0.2062396 
   9.180000000    -0.0001290   -0.0820874    -0.0094601   -0.0039802    -0.0095730   -0.0042422    -0.0875886   -0.1589601 
   9.200000000    -0.0445523   -0.1074894    -0.0044407    0.0082058    -0.0046393    0.0083422    -0.0684242   -0.1461512 
   9.220000000    -0.0797696   -0.0580394     0.0071332    0.0061309     0.0073046    0.0062369    -0.0745849   -0.1698226 
   9.240000000    -0.1069399   -0.0337932     0.0076149   -0.0078201     0.0077267   -0.0080506    -0.1002811   -0.1821980 
   9.260000000    -0.0943347    0.0007191    -0.0086105   -0.0074709    -0.0087908   -0.0074892    -0.1108027   -0.1195196 
   9.280000000    -0.0569084    0.0353392    -0.0066206    0.0080110    -0.0065806    0.0081781    -0.1218478   -0.1258348 
   9.300000000    -0.0861768    0.0704293     0.0065649    0.0069875     0.0065410    0.0069426    -0.1384198   -0.1246665 
   9.320000000    -0.0890599    0.0766995     0.0078287   -0.0061387     0.0078567   -0.0062099    -0.1094541   -0.1132320 
   9.340000000    -0.0637396    0.0639240    -0.0061193   -0.0078324    -0.0061264   -0.0078832    -0.1447334   -0.1279455 
   9.360000000     0.0327774    0.1071103    -0.0068873    0.0053968    -0.0070580    0.0053469    -0.1779552   -0.1112672 
   9.380000000     0.0385800    0.0471114     0.0030685    0.0068085     0.0030828    0.0068878    -0.1594526   -0.0932249 
   9.400000000    -0.0195011    0.0448066     0.0083219   -0.0013229     0.0083872   -0.0013659    -0.1348552   -0.0896928 
   9.420000000     0.0609177    0.0399628    -0.0010128   -0.0098811    -0.0011944   -0.0100009    -0.2032438   -0.1023442 
   9.440000000     0.0357721    0.0141733    -0.0099563    0.0012546    -0.0100344    0.0014271    -0.2224380   -0.0637151 
   9.460000000    -0.0178950    0.0337804     0.0002433    0.0097496     0.0003648    0.0098165    -0.1971100   -0.0197490 
   9.480000000     0.0113663   -0.0019372     0.0104656    0.0009240     0.0105531    0.0008570    -0.1874390   -0.0335495 
   9.500000000    -0.0153514    0.0023254     0.0014411   -0.0119838     0.0012621   -0.0121071    -0.2157790   -0.0015194 
   9.520000000    -0.0099183    0.0410673    -0.0125735   -0.0004242    -0.0124906   -0.0001141    -0.2078439    0.0037345 
   9.540000000    -0.0112341   -0.0089351     0.0001705    0.0116188     0.0002869    0.0115221    -0.2057277    0.0231601 
   9.560000000    -0.0143124   -0.0031916     0.0100443    0.0006414     0.0099798    0.0005292    -0.1930084    0.0302267 
   9.580000000     0.0335894    0.0546222     0.0023451   -0.0102773     0.0022782   -0.0101290    -0.1887822    0.0492566 
   9.600000000     0.0268287    0.0741387    -0.0107488   -0.0022631    -0.0106740   -0.0022234    -0.1705590    0.0191376 
   9.620000000     0.0182933   -0.0096625    -0.0022748    0.0098567    -0.0023363    0.0097369    -0.2395536    0.0472715 
   9.640000000    -0.0087618   -0.0558281     0.0084339    0.0032064     0.0084328    0.0032316    -0.2213170    0.1148131 
   9.660000000    -0.0051627   -0.0109040     0.0054838   -0.0082392     0.0055187   -0.0082264    -0.1802487    0.1098177 
   9.680000000    -0.0007520   -0.0463525    -0.0094058   -0.0063467    -0.0094432   -0.0064209    -0.1782148    0.0682012 
   9.700000000    -0.0247989   -0.0784406    -0.0058749    0.0098003    -0.0058699    0.0097993    -0.2513571    0.1345631 
   9.720000000    -0.0232280   -0.0366115     0.0085921    0.0055624     0.0086009    0.0056205    -0.1695749    0.1709062 
   9.740000000    -0.1108293   -0.0176483     0.0069467   -0.0079643     0.0070414   -0.0079665    -0.1529139    0.1614911 
   9.760000000    -0.1729632    0.0127421    -0.0084947   -0.0077967    -0.0085600   -0.0077044    -0.1517581    0.1525764 
   9.780000000    -0.1170489    0.0512754    -0.0070963    0.0092461    -0.0070841    0.0092799    -0.1694241    0.1702761 
   9.800000000    -0.0827634    0.0842120     0.0082549    0.0058415     0.0083296    0.0057941    -0.1209424    0.1927970 
   9.820000000    -0.1018360    0.1335837     0.0057185   -0.0065027     0.0056517   -0.0065085    -0.1369797    0.1792585 
   9.840000000    -0.0495344    0.1213599    -0.0050178   -0.0068453    -0.0050016   -0.0067869    -0.1381087    0.2352851 
   9.860000000     0.0074448    0.1205391    -0.0076000    0.0053357    -0.0075597    0.0053828    -0.0957773    0.1843956 
   9.880000000     0.0679950    0.1746352     0.0049924    0.0065558     0.0049135    0.0064156    -0.1184503    0.2074558 
   9.900000000     0.1142548    0.1397682     0.0060545   -0.0030269     0.0059411   -0.0029502    -0.1168559    0.2627704 
   9.920000000     0.1269055    0.0251701    -0.0009451   -0.0069075    -0.0007636   -0.0070168    -0.0509689    0.2795908 
   9.940000000     0.1065153   -0.0203969    -0.0087756    0.0005479    -0.0090151    0.0004807    -0.0375876    0.2146086 
   9.960000000     0.0597592   -0.0314033     0.0008869    0.0092061     0.0009007    0.0092273    -0.0523202    0.2507130 
   9.980000000     0.0469381   -0.0736278     0.0085714   -0.0008037     0.0086253   -0.0008326    -0.0261325    0.3021691 
  10.000000000     0.0712073   -0.1245696     0.0004862   -0.0081174     0.0005397   -0.0082277     0.0173828    0.2679031 
