! 4/11/2025 3:26:56 PM
! C:\ANRITSUVNA\LELEC2350\LAB1_2025\GROUP1_15.S2P
! CHANNEL.1
! TR.MEASUREMENT
! CORRECTED.DATA
! RF.CORRECTION: FULL.TWO.PORT.CAL.PORT.1.2
! AVERAGING.OFF
! IF.BANDWIDTH: 300HZ
! SWEEPTYPE:  FREQ.SWEEP(Linear)
! Reference Plane Port Info
! PORT:              PORT1              PORT2             
! DISTANCE:          0  m               0  m              
! TIME:              0  s               0  s              
! PHASE.OFFSET:      0 °                0 °               
! LOSS:              0  dB              0  dB             
! REF.LOSS:          0  dB              0  dB             
! REF.FREQ:          0  Hz              0  Hz             
! Power Info
! POWER:             5  dBm             5  dBm            
! EFF.POWER:         5  dBm             5  dBm            
# GHZ S RI R 50.0
! FREQ.GHZ         S11RE         S11IM         S21RE         S21IM         S12RE         S12IM         S22RE         S22IM         
!; PortSelection: Port_12
   7.000000000    -0.0759498   -0.0269119    -0.0034283    0.0062793    -0.0034889    0.0062486    -0.0436323   -0.1076419 
   7.020000000    -0.0865550    0.0405554     0.0066134    0.0044311     0.0066904    0.0045114    -0.0362405   -0.1217087 
   7.040000000    -0.0274221    0.0744131     0.0042240   -0.0072807     0.0041915   -0.0071707    -0.0681071   -0.1141735 
   7.060000000    -0.0304886    0.0395952    -0.0065903   -0.0037851    -0.0064650   -0.0035961    -0.0580401   -0.0892375 
   7.080000000    -0.0038372    0.0622845    -0.0043931    0.0057454    -0.0044017    0.0058394    -0.0525851   -0.0999801 
   7.100000000     0.0705532    0.0691419     0.0055538    0.0049287     0.0056092    0.0050230    -0.0712941   -0.1090925 
   7.120000000     0.0825008    0.0459483     0.0057010   -0.0057314     0.0057953   -0.0059399    -0.0711959   -0.0835928 
   7.140000000     0.0942021    0.0069014    -0.0058164   -0.0052021    -0.0059256   -0.0051470    -0.0845582   -0.0895347 
   7.160000000     0.0889324   -0.0811019    -0.0055883    0.0047835    -0.0056425    0.0048295    -0.0829019   -0.0868988 
   7.180000000     0.0038631   -0.1179595     0.0047982    0.0063360     0.0045173    0.0066160    -0.0842994   -0.0879515 
   7.200000000    -0.0463317   -0.0927873     0.0070189   -0.0049701     0.0071246   -0.0049804    -0.0942131   -0.0863646 
   7.220000000    -0.0424535   -0.0791221    -0.0053956   -0.0064405    -0.0055286   -0.0062167    -0.1229551   -0.0936233 
   7.240000000    -0.0455937   -0.0485334    -0.0060614    0.0046536    -0.0058647    0.0046815    -0.1279773   -0.0607779 
   7.260000000    -0.0811000   -0.0189668     0.0037403    0.0063042     0.0037570    0.0062888    -0.1013516   -0.0527342 
   7.280000000    -0.1208070    0.0274136     0.0069580   -0.0034950     0.0071214   -0.0036654    -0.1183416   -0.0675876 
   7.300000000    -0.0743580    0.0676907    -0.0038708   -0.0066411    -0.0040767   -0.0066766    -0.1511818   -0.0492431 
   7.320000000    -0.0134006    0.0630330    -0.0056708    0.0034265    -0.0055968    0.0034252    -0.1414721   -0.0229196 
   7.340000000     0.0100508    0.0655625     0.0017247    0.0054144     0.0016553    0.0053899    -0.1145281   -0.0244412 
   7.360000000     0.0289448    0.0183636     0.0062385   -0.0009017     0.0062643   -0.0008465    -0.1431321   -0.0334286 
   7.380000000     0.0162512   -0.0010118    -0.0006728   -0.0069844    -0.0007463   -0.0068616    -0.1471681   -0.0298516 
   7.400000000     0.0477848    0.0365072    -0.0066276    0.0010299    -0.0066578    0.0010344    -0.1424531   -0.0086342 
   7.420000000     0.0542836   -0.0137232     0.0000091    0.0060113    -0.0000988    0.0060994    -0.1598406    0.0036728 
   7.440000000     0.0149945   -0.0396443     0.0064083    0.0006973     0.0064790    0.0007722    -0.1542060    0.0124458 
   7.460000000     0.0187565   -0.0329252     0.0012826   -0.0069139     0.0012581   -0.0068868    -0.1473332    0.0205584 
   7.480000000    -0.0142895   -0.0494001    -0.0071260   -0.0008477    -0.0070846   -0.0008158    -0.1635741    0.0062054 
   7.500000000    -0.0323961   -0.0443974    -0.0008729    0.0061472    -0.0009574    0.0061854    -0.1709651    0.0494164 
   7.520000000    -0.0008083   -0.0662677     0.0057129    0.0017446     0.0057442    0.0017335    -0.1402341    0.0591563 
   7.540000000    -0.0297481   -0.0674149     0.0024656   -0.0057168     0.0024800   -0.0058837    -0.1428291    0.0641149 
   7.560000000    -0.0786433   -0.0309712    -0.0057181   -0.0024805    -0.0057715   -0.0024754    -0.1498356    0.0413142 
   7.580000000    -0.1272539    0.0095176    -0.0028462    0.0049968    -0.0029742    0.0049630    -0.1510583    0.0881586 
   7.600000000    -0.0962056    0.0744926     0.0045264    0.0036681     0.0046331    0.0036453    -0.1377535    0.0817368 
   7.620000000    -0.0437231    0.0876334     0.0043741   -0.0045256     0.0043515   -0.0045041    -0.1445230    0.1001699 
   7.640000000    -0.0194645    0.1102749    -0.0044457   -0.0046179    -0.0044896   -0.0046712    -0.1275752    0.0868134 
   7.660000000     0.0818911    0.0734644    -0.0049216    0.0040139    -0.0051056    0.0040665    -0.1379204    0.0945310 
   7.680000000     0.0789394    0.0159076     0.0034129    0.0055299     0.0034689    0.0055993    -0.1442421    0.1248244 
   7.700000000     0.0750758    0.0228185     0.0068490   -0.0035244     0.0067504   -0.0035268    -0.1292751    0.1426505 
   7.720000000     0.0590360   -0.0770586    -0.0041508   -0.0068906    -0.0040551   -0.0069128    -0.1106096    0.1256453 
   7.740000000     0.0046279   -0.0872193    -0.0067789    0.0038833    -0.0069006    0.0039296    -0.1154238    0.1377471 
   7.760000000     0.0153239   -0.0568170     0.0035246    0.0064393     0.0036238    0.0065659    -0.1225980    0.1625047 
   7.780000000    -0.0325183   -0.0887797     0.0068270   -0.0028690     0.0068152   -0.0031048    -0.0991491    0.1534319 
   7.800000000    -0.0968858   -0.0679727    -0.0026077   -0.0070557    -0.0027528   -0.0071675    -0.0728706    0.1646376 
   7.820000000    -0.0912315   -0.0108456    -0.0070151    0.0025414    -0.0072013    0.0026038    -0.0800332    0.1699810 
   7.840000000    -0.0852947    0.0338895     0.0022491    0.0066072     0.0023431    0.0066871    -0.0809909    0.1675120 
   7.860000000    -0.0509059    0.0671164     0.0064641   -0.0012950     0.0064386   -0.0012975    -0.0773899    0.1891030 
   7.880000000    -0.0163973    0.0339674    -0.0005112   -0.0069004    -0.0004669   -0.0069609    -0.0597652    0.1752412 
   7.900000000    -0.0139683    0.0442190    -0.0070894    0.0003922    -0.0071905    0.0003673    -0.0391665    0.2002738 
   7.920000000     0.0009803    0.0591085    -0.0003289    0.0072987    -0.0002226    0.0072832    -0.0371901    0.1929428 
   7.940000000     0.0216969    0.0272649     0.0073490    0.0006169     0.0073708    0.0005248    -0.0394319    0.1837266 
   7.960000000     0.0793638    0.0013110     0.0011813   -0.0075226     0.0012521   -0.0075834    -0.0082436    0.2117335 
   7.980000000     0.0808032   -0.0401336    -0.0077926   -0.0009630    -0.0079150   -0.0010692     0.0155122    0.2277782 
   8.000000000    -0.0155561   -0.0487034    -0.0013670    0.0071397    -0.0013416    0.0072187     0.0197275    0.1809767 
   8.020000000    -0.0282083   -0.0356651     0.0070399    0.0017199     0.0071885    0.0016521     0.0324997    0.1912426 
   8.040000000    -0.0191063   -0.0685709     0.0021952   -0.0069127     0.0021549   -0.0068356     0.0338412    0.1942633 
   8.060000000    -0.0455524   -0.0395285    -0.0068717   -0.0024841    -0.0069769   -0.0024575     0.0481575    0.2023132 
   8.080000000    -0.0442589   -0.0522367    -0.0024863    0.0064491    -0.0024968    0.0065243     0.0666768    0.1861850 
   8.100000000    -0.0997090   -0.0419754     0.0058983    0.0027399     0.0060692    0.0027776     0.0536878    0.1674392 
   8.120000000    -0.1066993    0.0798867     0.0034242   -0.0053934     0.0035631   -0.0054386     0.0641773    0.1831022 
   8.140000000    -0.0376905    0.1168544    -0.0052199   -0.0043270    -0.0052663   -0.0044247     0.0688924    0.1929629 
   8.160000000    -0.0114630    0.0605421    -0.0044164    0.0054296    -0.0044555    0.0054370     0.0980760    0.1845181 
   8.180000000     0.0200169    0.0513183     0.0048382    0.0044025     0.0048521    0.0043787     0.1097076    0.1540297 
   8.200000000     0.0590179    0.0388959     0.0050483   -0.0043845     0.0049857   -0.0044262     0.1074629    0.1662563 
   8.220000000     0.0490556    0.0299757    -0.0038896   -0.0053562    -0.0040202   -0.0053823     0.1180075    0.1665178 
   8.240000000     0.0870956   -0.0162850    -0.0058337    0.0041187    -0.0057596    0.0042053     0.1509281    0.1489072 
   8.260000000     0.1034856   -0.0906733     0.0037287    0.0055202     0.0038451    0.0055875     0.1366379    0.1344217 
   8.280000000     0.0261395   -0.1043131     0.0057295   -0.0031815     0.0057330   -0.0032191     0.1340225    0.1349407 
   8.300000000    -0.0518487   -0.1007468    -0.0026334   -0.0057693    -0.0027206   -0.0057637     0.1615340    0.1119877 
   8.320000000    -0.0800339   -0.0799961    -0.0059251    0.0021994    -0.0058393    0.0021603     0.1259635    0.1198530 
   8.340000000    -0.0764832   -0.0490024     0.0017264    0.0058254     0.0017561    0.0058914     0.1443149    0.1198691 
   8.360000000    -0.1278945   -0.0509015     0.0060112   -0.0010551     0.0061040   -0.0011129     0.1749979    0.1032820 
   8.380000000    -0.1157915    0.0050667    -0.0005957   -0.0062524    -0.0006934   -0.0061735     0.1700632    0.0795222 
   8.400000000    -0.0708631    0.0213661    -0.0063133    0.0002240    -0.0062639    0.0002407     0.1377992    0.0913266 
   8.420000000    -0.0788077    0.1104801    -0.0000897    0.0061742    -0.0001223    0.0061995     0.1863942    0.1029751 
   8.440000000    -0.0137710    0.1259989     0.0058712    0.0006701     0.0059232    0.0007634     0.1927706    0.0683220 
   8.460000000    -0.0236886    0.0544308     0.0018610   -0.0060961     0.0017426   -0.0059949     0.1831439    0.0319669 
   8.480000000     0.0242020    0.0660686    -0.0063487   -0.0021248    -0.0062962   -0.0020817     0.1627057    0.0585408 
   8.500000000     0.0590459    0.0244898    -0.0023064    0.0064645    -0.0023130    0.0064134     0.1822658    0.0379981 
   8.520000000     0.0318958    0.0093376     0.0059368    0.0023605     0.0059713    0.0023079     0.1980905    0.0050063 
   8.540000000     0.0700797   -0.0253420     0.0034140   -0.0056260     0.0033504   -0.0055801     0.1889855    0.0217189 
   8.560000000     0.0350778   -0.0315167    -0.0058198   -0.0038637    -0.0057874   -0.0038522     0.1673470   -0.0021779 
   8.580000000     0.0114562   -0.0150419    -0.0041338    0.0059306    -0.0041725    0.0059903     0.1553419   -0.0234445 
   8.600000000    -0.0226077   -0.0693123     0.0057337    0.0041166     0.0057854    0.0040450     0.1750170    0.0226082 
   8.620000000    -0.0477582   -0.0303544     0.0044130   -0.0049310     0.0043705   -0.0049296     0.1871522    0.0045399 
   8.640000000    -0.0384034   -0.0076465    -0.0048051   -0.0050484    -0.0047419   -0.0050554     0.1875608   -0.0480779 
   8.660000000    -0.0902100   -0.0110935    -0.0054950    0.0045347    -0.0054798    0.0045179     0.1509955   -0.0480919 
   8.680000000    -0.0485653    0.0308381     0.0043615    0.0057286     0.0044426    0.0057163     0.1781135   -0.0259164 
   8.700000000     0.0289824    0.0104928     0.0058961   -0.0039132     0.0059207   -0.0039311     0.1883790   -0.0516853 
   8.720000000    -0.0230768    0.0210050    -0.0034995   -0.0064375    -0.0035022   -0.0063896     0.1537480   -0.0954778 
   8.740000000    -0.0276840    0.0811657    -0.0066693    0.0037577    -0.0067283    0.0037920     0.1397664   -0.0913842 
   8.760000000     0.0210752    0.0222799     0.0033458    0.0064638     0.0033520    0.0065338     0.1579243   -0.0811001 
   8.780000000     0.0112933    0.0216768     0.0064133   -0.0028776     0.0063930   -0.0029235     0.1152772   -0.0915338 
   8.800000000     0.0290436   -0.0001747    -0.0019301   -0.0066782    -0.0020064   -0.0067207     0.1128046   -0.1017370 
   8.820000000     0.0031529   -0.0822835    -0.0072038    0.0020188    -0.0072431    0.0021082     0.1543539   -0.1003547 
   8.840000000    -0.0141768   -0.0305439     0.0019230    0.0069933     0.0019425    0.0070086     0.0994923   -0.1229715 
   8.860000000     0.0073747    0.0251721     0.0066488   -0.0015374     0.0066469   -0.0016246     0.0959333   -0.1159814 
   8.880000000    -0.0269678   -0.0364536    -0.0006484   -0.0065222    -0.0007159   -0.0065762     0.1292806   -0.1071324 
   8.900000000    -0.0653833   -0.0578172    -0.0070776    0.0001781    -0.0071843    0.0002057     0.1268572   -0.1458858 
   8.920000000    -0.0664784   -0.0249053     0.0002001    0.0070527     0.0002374    0.0070697     0.0736985   -0.1471247 
   8.940000000    -0.0966417    0.0304023     0.0066176   -0.0002001     0.0066248   -0.0002610     0.0696652   -0.1490733 
   8.960000000    -0.0692247    0.0665419     0.0003145   -0.0057354     0.0003772   -0.0058016     0.0663694   -0.1477454 
   8.980000000    -0.0259271    0.0510683    -0.0055835   -0.0014502    -0.0056278   -0.0014190     0.0744169   -0.1719912 
   9.000000000    -0.0097099    0.0552777    -0.0019119    0.0056442    -0.0019186    0.0057006     0.0252437   -0.1588084 
   9.020000000    -0.0245475    0.0542705     0.0056106    0.0020777     0.0055935    0.0020278     0.0299013   -0.1668941 
   9.040000000    -0.0150837    0.0759766     0.0024299   -0.0051709     0.0024986   -0.0051771     0.0159185   -0.1701761 
   9.060000000     0.0673150    0.0786619    -0.0045007   -0.0029461    -0.0046957   -0.0029862     0.0140338   -0.1215737 
   9.080000000     0.0732012    0.0313513    -0.0038820    0.0044263    -0.0038580    0.0045964     0.0094390   -0.1907678 
   9.100000000     0.0307956   -0.0079835     0.0044498    0.0041585     0.0045272    0.0040778    -0.0008809   -0.1692300 
   9.120000000     0.0528937   -0.0464319     0.0043781   -0.0043369     0.0043427   -0.0043609    -0.0221232   -0.1456067 
   9.140000000     0.0400901   -0.0441054    -0.0040318   -0.0043976    -0.0040351   -0.0044764    -0.0278337   -0.1630946 
   9.160000000     0.0264840    0.0016962    -0.0049340    0.0034904    -0.0048972    0.0037173    -0.0272696   -0.1880642 
   9.180000000     0.0088213   -0.0878779     0.0034689    0.0049596     0.0036130    0.0048329    -0.0690896   -0.1782599 
   9.200000000    -0.0533388   -0.1146773     0.0050222   -0.0030553     0.0048908   -0.0031203    -0.0831906   -0.1662204 
   9.220000000    -0.0877755   -0.0515163    -0.0025823   -0.0050029    -0.0025485   -0.0049695    -0.0974416   -0.1622230 
   9.240000000    -0.0992388   -0.0282266    -0.0052879    0.0018111    -0.0053151    0.0019215    -0.0948340   -0.1563050 
   9.260000000    -0.0876255   -0.0034575     0.0016131    0.0054971     0.0017467    0.0054910    -0.0848372   -0.1254006 
   9.280000000    -0.0652303    0.0293319     0.0053953   -0.0012821     0.0052367   -0.0014380    -0.1234549   -0.1484348 
   9.300000000    -0.0916610    0.0762531    -0.0004840   -0.0053076    -0.0005162   -0.0051967    -0.1607880   -0.1305059 
   9.320000000    -0.0810643    0.0815358    -0.0056059   -0.0001771    -0.0055783   -0.0001395    -0.1207233   -0.0896703 
   9.340000000    -0.0605658    0.0589046    -0.0005457    0.0060336    -0.0004407    0.0060575    -0.1203420   -0.1147150 
   9.360000000     0.0257963    0.1006132     0.0063357    0.0003610     0.0062466    0.0002444    -0.1661830   -0.1316009 
   9.380000000     0.0346383    0.0529315     0.0004647   -0.0057543     0.0004608   -0.0055949    -0.1746384   -0.1094072 
   9.400000000    -0.0117367    0.0514939    -0.0053045   -0.0009479    -0.0052532   -0.0009987    -0.1554037   -0.0772528 
   9.420000000     0.0638971    0.0337990    -0.0018746    0.0051690    -0.0018655    0.0051376    -0.1919963   -0.0763315 
   9.440000000     0.0292445    0.0070418     0.0053247    0.0022110     0.0053391    0.0021221    -0.1993020   -0.0735516 
   9.460000000    -0.0227415    0.0416309     0.0023720   -0.0049563     0.0023624   -0.0049250    -0.2004467   -0.0410361 
   9.480000000     0.0185989    0.0050616    -0.0047494   -0.0027427    -0.0046809   -0.0028734    -0.2107595   -0.0366264 
   9.500000000    -0.0120150   -0.0057147    -0.0033426    0.0043611    -0.0034755    0.0043567    -0.2222431    0.0256028 
   9.520000000    -0.0160621    0.0355307     0.0043405    0.0038149     0.0043998    0.0038988    -0.1814225    0.0108154 
   9.540000000    -0.0165004   -0.0006651     0.0040433   -0.0042445     0.0040715   -0.0041950    -0.1964529    0.0024887 
   9.560000000    -0.0068027    0.0029058    -0.0040787   -0.0042181    -0.0040415   -0.0043245    -0.2110504    0.0151125 
   9.580000000     0.0375341    0.0451499    -0.0044934    0.0037381    -0.0045734    0.0037416    -0.2082927    0.0666366 
   9.600000000     0.0211919    0.0714371     0.0037831    0.0046332     0.0038510    0.0046680    -0.1528252    0.0401132 
   9.620000000     0.0132556    0.0000933     0.0044794   -0.0033033     0.0045732   -0.0032932    -0.2196529    0.0332646 
   9.640000000    -0.0005525   -0.0516101    -0.0027624   -0.0044715    -0.0027352   -0.0045375    -0.2276519    0.0934446 
   9.660000000    -0.0010871   -0.0222518    -0.0047878    0.0021045    -0.0048025    0.0022125    -0.2074339    0.1122289 
   9.680000000    -0.0095869   -0.0482281     0.0016834    0.0051702     0.0017043    0.0051664    -0.1762777    0.0961996 
   9.700000000    -0.0278294   -0.0680620     0.0053493   -0.0017078     0.0053446   -0.0017157    -0.2273535    0.1357624 
   9.720000000    -0.0123216   -0.0347292    -0.0015353   -0.0049494    -0.0015737   -0.0049877    -0.1651365    0.1495526 
   9.740000000    -0.1082776   -0.0291208    -0.0050799    0.0008598    -0.0050617    0.0009148    -0.1740651    0.1518437 
   9.760000000    -0.1838799    0.0132900     0.0003533    0.0051195     0.0003711    0.0049713    -0.1665701    0.1752681 
   9.780000000    -0.1192159    0.0621931     0.0054821   -0.0002415     0.0053550   -0.0002707    -0.1490385    0.1849994 
   9.800000000    -0.0719136    0.0839341    -0.0005376   -0.0050930    -0.0005590   -0.0051269    -0.1044561    0.1771268 
   9.820000000    -0.1003008    0.1226716    -0.0045887    0.0000205    -0.0046256   -0.0000251    -0.1462480    0.1591549 
   9.840000000    -0.0589556    0.1220963    -0.0006398    0.0039400    -0.0005715    0.0039189    -0.1616842    0.2429053 
   9.860000000     0.0072626    0.1284028     0.0042452    0.0013989     0.0041548    0.0013314    -0.0893308    0.2074673 
   9.880000000     0.0768209    0.1743945     0.0015200   -0.0040931     0.0015320   -0.0039210    -0.0954779    0.2035114 
   9.900000000     0.1166474    0.1328865    -0.0036840   -0.0015302    -0.0036661   -0.0016634    -0.1145213    0.2425132 
   9.920000000     0.1192384    0.0255843    -0.0019870    0.0030945    -0.0020792    0.0030868    -0.0722925    0.2707695 
   9.940000000     0.1049653   -0.0136176     0.0027882    0.0029719     0.0027221    0.0030165    -0.0478050    0.2383088 
   9.960000000     0.0671365   -0.0313919     0.0031726   -0.0029828     0.0032905   -0.0029248    -0.0303728    0.2614132 
   9.980000000     0.0483672   -0.0810495    -0.0027873   -0.0029482    -0.0027551   -0.0030634    -0.0116665    0.2876112 
  10.000000000     0.0631371   -0.1258299    -0.0031598    0.0017902    -0.0032711    0.0017592     0.0063568    0.2471260 
