! 4/11/2025 3:27:37 PM
! C:\ANRITSUVNA\LELEC2350\LAB1_2025\GROUP1_20.S2P
! CHANNEL.1
! TR.MEASUREMENT
! CORRECTED.DATA
! RF.CORRECTION: FULL.TWO.PORT.CAL.PORT.1.2
! AVERAGING.OFF
! IF.BANDWIDTH: 300HZ
! SWEEPTYPE:  FREQ.SWEEP(Linear)
! Reference Plane Port Info
! PORT:              PORT1              PORT2             
! DISTANCE:          0  m               0  m              
! TIME:              0  s               0  s              
! PHASE.OFFSET:      0 °                0 °               
! LOSS:              0  dB              0  dB             
! REF.LOSS:          0  dB              0  dB             
! REF.FREQ:          0  Hz              0  Hz             
! Power Info
! POWER:             5  dBm             5  dBm            
! EFF.POWER:         5  dBm             5  dBm            
# GHZ S RI R 50.0
! FREQ.GHZ         S11RE         S11IM         S21RE         S21IM         S12RE         S12IM         S22RE         S22IM         
!; PortSelection: Port_12
   7.000000000    -0.0686135   -0.0298140     0.0003801    0.0076848     0.0003694    0.0076214    -0.0395673   -0.0841619 
   7.020000000    -0.0906877    0.0338090     0.0077100   -0.0011428     0.0076852   -0.0011428    -0.0112691   -0.1187940 
   7.040000000    -0.0331031    0.0791606    -0.0010995   -0.0071737    -0.0009037   -0.0068784    -0.0617405   -0.1414525 
   7.060000000    -0.0262342    0.0446264    -0.0066466    0.0004702    -0.0064569    0.0003820    -0.0836418   -0.0966760 
   7.080000000     0.0020125    0.0573698    -0.0004137    0.0070612    -0.0004028    0.0072102    -0.0628397   -0.0785508 
   7.100000000     0.0639504    0.0648363     0.0074759   -0.0001794     0.0075019   -0.0000496    -0.0537413   -0.0935312 
   7.120000000     0.0791303    0.0524268    -0.0003079   -0.0065383    -0.0001827   -0.0067555    -0.0510307   -0.1006417 
   7.140000000     0.0996740    0.0083777    -0.0057422   -0.0008592    -0.0059965   -0.0009614    -0.0996292   -0.1109692 
   7.160000000     0.0912982   -0.0868084    -0.0019473    0.0062890    -0.0020028    0.0065311    -0.1043154   -0.0750978 
   7.180000000    -0.0032196   -0.1185449     0.0069483    0.0021523     0.0070578    0.0023399    -0.0780102   -0.0663801 
   7.200000000    -0.0459402   -0.0862074     0.0018365   -0.0071212     0.0017305   -0.0071404    -0.0707330   -0.0875143 
   7.220000000    -0.0364642   -0.0802380    -0.0063358   -0.0019682    -0.0062907   -0.0017339    -0.1216495   -0.1187611 
   7.240000000    -0.0465960   -0.0537511    -0.0026571    0.0063488    -0.0024351    0.0062475    -0.1509877   -0.0633974 
   7.260000000    -0.0875265   -0.0174021     0.0065394    0.0032759     0.0064033    0.0032005    -0.1077135   -0.0328881 
   7.280000000    -0.1185033    0.0329886     0.0028571   -0.0071898     0.0029045   -0.0072493    -0.1012075   -0.0558031 
   7.300000000    -0.0692187    0.0654187    -0.0063097   -0.0021877    -0.0063401   -0.0022599    -0.1354403   -0.0670246 
   7.320000000    -0.0152064    0.0585255    -0.0023264    0.0054851    -0.0024122    0.0054981    -0.1572159   -0.0386479 
   7.340000000     0.0049851    0.0672141     0.0045061    0.0030237     0.0045850    0.0030329    -0.1308863   -0.0132869 
   7.360000000     0.0313165    0.0236999     0.0035379   -0.0046798     0.0035370   -0.0046778    -0.1371226   -0.0157109 
   7.380000000     0.0216065   -0.0037176    -0.0042135   -0.0034840    -0.0041733   -0.0033962    -0.1258247   -0.0329641 
   7.400000000     0.0453862    0.0323463    -0.0039569    0.0033983    -0.0039668    0.0034273    -0.1442978   -0.0301010 
   7.420000000     0.0505178   -0.0116585     0.0030947    0.0048723     0.0030793    0.0049155    -0.1798744    0.0023645 
   7.440000000     0.0173573   -0.0355283     0.0054916   -0.0032498     0.0055076   -0.0031585    -0.1593031    0.0301464 
   7.460000000     0.0220609   -0.0355559    -0.0035535   -0.0058809    -0.0035648   -0.0057888    -0.1295269    0.0304045 
   7.480000000    -0.0165367   -0.0529456    -0.0054318    0.0035593    -0.0053376    0.0034821    -0.1500030   -0.0106439 
   7.500000000    -0.0347942   -0.0421121     0.0031634    0.0054106     0.0029612    0.0054427    -0.1867716    0.0355133 
   7.520000000     0.0011753   -0.0635884     0.0055284   -0.0028117     0.0055401   -0.0027885    -0.1543981    0.0715789 
   7.540000000    -0.0270148   -0.0699277    -0.0027108   -0.0055140    -0.0026644   -0.0055710    -0.1353098    0.0800803 
   7.560000000    -0.0811910   -0.0337201    -0.0047608    0.0024801    -0.0048449    0.0023691    -0.1306385    0.0362718 
   7.580000000    -0.1300099    0.0120761     0.0011217    0.0044565     0.0009610    0.0046514    -0.1557261    0.0675561 
   7.600000000    -0.0937960    0.0769793     0.0050246   -0.0000050     0.0051495   -0.0000510    -0.1567622    0.0834534 
   7.620000000    -0.0406365    0.0844621     0.0002803   -0.0059695     0.0002702   -0.0059841    -0.1467769    0.1171972 
   7.640000000    -0.0227203    0.1077225    -0.0058251    0.0001684    -0.0058655   -0.0000162    -0.1103030    0.0928787 
   7.660000000     0.0792687    0.0772247    -0.0007495    0.0052661    -0.0009551    0.0054136    -0.1300076    0.0776445 
   7.680000000     0.0825311    0.0179304     0.0056987    0.0019495     0.0058436    0.0020033    -0.1589661    0.1157356 
   7.700000000     0.0778625    0.0188069     0.0023319   -0.0068422     0.0023883   -0.0069159    -0.1402044    0.1548174 
   7.720000000     0.0543936   -0.0781143    -0.0072012   -0.0015678    -0.0073247   -0.0017312    -0.1006095    0.1391172 
   7.740000000     0.0037434   -0.0823897    -0.0015614    0.0063683    -0.0015593    0.0066520    -0.1003244    0.1294814 
   7.760000000     0.0196685   -0.0571707     0.0058337    0.0021822     0.0061523    0.0021105    -0.1280953    0.1468594 
   7.780000000    -0.0326376   -0.0924009     0.0027999   -0.0061606     0.0025195   -0.0063763    -0.1142178    0.1567633 
   7.800000000    -0.1011036   -0.0675227    -0.0062618   -0.0028113    -0.0064807   -0.0026223    -0.0735588    0.1790863 
   7.820000000    -0.0902853   -0.0079032    -0.0024121    0.0056880    -0.0023438    0.0058875    -0.0653739    0.1731744 
   7.840000000    -0.0810712    0.0327870     0.0047519    0.0030648     0.0048199    0.0028813    -0.0763664    0.1534159 
   7.860000000    -0.0521537    0.0640746     0.0039051   -0.0047556     0.0038528   -0.0046766    -0.0899771    0.1833802 
   7.880000000    -0.0210622    0.0352393    -0.0046469   -0.0046457    -0.0046889   -0.0045754    -0.0687257    0.1857903 
   7.900000000    -0.0124086    0.0481341    -0.0045506    0.0048749    -0.0044685    0.0049359    -0.0304232    0.2120796 
   7.920000000     0.0050290    0.0578182     0.0040751    0.0049956     0.0041851    0.0048464    -0.0238668    0.1845310 
   7.940000000     0.0200548    0.0235839     0.0059841   -0.0040573     0.0057805   -0.0040604    -0.0461531    0.1711488 
   7.960000000     0.0757646    0.0019619    -0.0045045   -0.0065203    -0.0044358   -0.0065371    -0.0213877    0.2154552 
   7.980000000     0.0822309   -0.0364972    -0.0062243    0.0052378    -0.0063850    0.0053104     0.0158597    0.2412008 
   8.000000000    -0.0124633   -0.0497073     0.0048281    0.0055210     0.0049101    0.0053241     0.0332182    0.1815639 
   8.020000000    -0.0296160   -0.0386252     0.0053935   -0.0038630     0.0052298   -0.0039585     0.0346453    0.1784588 
   8.040000000    -0.0203822   -0.0677367    -0.0034453   -0.0058978    -0.0033653   -0.0057825     0.0218583    0.1899247 
   8.060000000    -0.0448579   -0.0371744    -0.0061707    0.0033536    -0.0061627    0.0034363     0.0412540    0.2128607 
   8.080000000    -0.0441008   -0.0530602     0.0033380    0.0056534     0.0034317    0.0054918     0.0767187    0.1954269 
   8.100000000    -0.1005861   -0.0438074     0.0051341   -0.0023603     0.0051148   -0.0023263     0.0637947    0.1581752 
   8.120000000    -0.1069072    0.0800390    -0.0013009   -0.0056806    -0.0011709   -0.0057362     0.0566531    0.1725843 
   8.140000000    -0.0368350    0.1190845    -0.0063431    0.0008532    -0.0063545    0.0007077     0.0581963    0.1984095 
   8.160000000    -0.0103919    0.0598989     0.0010471    0.0066296     0.0009503    0.0066870     0.1020046    0.1979946 
   8.180000000     0.0194729    0.0487065     0.0063244   -0.0009505     0.0063255   -0.0007841     0.1217683    0.1514670 
   8.200000000     0.0577799    0.0412269    -0.0002119   -0.0061771    -0.0001637   -0.0062997     0.1060006    0.1549449 
   8.220000000     0.0504901    0.0318052    -0.0063285   -0.0005452    -0.0065308   -0.0004748     0.1079647    0.1657986 
   8.240000000     0.0886745   -0.0180612    -0.0004777    0.0070104    -0.0003173    0.0072008     0.1466875    0.1594553 
   8.260000000     0.1019085   -0.0922952     0.0064308    0.0001317     0.0065618   -0.0000278     0.1464552    0.1391158 
   8.280000000     0.0251679   -0.1017047     0.0007256   -0.0058576     0.0005662   -0.0059578     0.1394562    0.1266477 
   8.300000000    -0.0496776   -0.0994113    -0.0056625   -0.0012853    -0.0056751   -0.0010645     0.1552600    0.1069310 
   8.320000000    -0.0783359   -0.0824399    -0.0016743    0.0056366    -0.0014929    0.0054697     0.1179301    0.1240811 
   8.340000000    -0.0779911   -0.0503155     0.0051229    0.0017766     0.0050990    0.0017132     0.1483666    0.1303861 
   8.360000000    -0.1292163   -0.0482764     0.0024242   -0.0045618     0.0023776   -0.0044981     0.1855681    0.0990859 
   8.380000000    -0.1140271    0.0052304    -0.0044123   -0.0034985    -0.0042774   -0.0033914     0.1673402    0.0705718 
   8.400000000    -0.0695003    0.0199313    -0.0041062    0.0046877    -0.0040322    0.0046230     0.1290411    0.0919712 
   8.420000000    -0.0804680    0.1097873     0.0048863    0.0040968     0.0048210    0.0041294     0.1839153    0.1125532 
   8.440000000    -0.0158520    0.1271545     0.0040555   -0.0045677     0.0041134   -0.0045079     0.2038435    0.0700620 
   8.460000000    -0.0216291    0.0555409    -0.0039524   -0.0046943    -0.0039482   -0.0045767     0.1843109    0.0233787 
   8.480000000     0.0259466    0.0648457    -0.0052359    0.0040460    -0.0051323    0.0039632     0.1555324    0.0560522 
   8.500000000     0.0573646    0.0235308     0.0043382    0.0052269     0.0041483    0.0053257     0.1780821    0.0441920 
   8.520000000     0.0304258    0.0109767     0.0047100   -0.0040925     0.0046892   -0.0040902     0.2042136    0.0119172 
   8.540000000     0.0727459   -0.0246379    -0.0029505   -0.0048562    -0.0029551   -0.0046984     0.1948637    0.0154323 
   8.560000000     0.0358996   -0.0328026    -0.0053241    0.0023950    -0.0052140    0.0023012     0.1631579   -0.0076073 
   8.580000000     0.0093388   -0.0157850     0.0022533    0.0057911     0.0020694    0.0057768     0.1495737   -0.0204326 
   8.600000000    -0.0237010   -0.0688045     0.0056715   -0.0021669     0.0056895   -0.0020382     0.1766564    0.0301604 
   8.620000000    -0.0453768   -0.0288195    -0.0014942   -0.0055272    -0.0013331   -0.0055534     0.1953970    0.0021047 
   8.640000000    -0.0374045   -0.0095085    -0.0058767    0.0006174    -0.0059201    0.0004693     0.1858875   -0.0549988 
   8.660000000    -0.0913450   -0.0123279     0.0004699    0.0065688     0.0003769    0.0066775     0.1454591   -0.0477096 
   8.680000000    -0.0494100    0.0312936     0.0064562   -0.0003969     0.0065367   -0.0003766     0.1757199   -0.0199054 
   8.700000000     0.0304905    0.0120935     0.0000278   -0.0064320     0.0001009   -0.0065427     0.1947228   -0.0491813 
   8.720000000    -0.0224062    0.0193671    -0.0065520   -0.0005592    -0.0066117   -0.0005625     0.1561606   -0.1011257 
   8.740000000    -0.0300015    0.0797938    -0.0006732    0.0072758    -0.0006951    0.0073286     0.1360195   -0.0919688 
   8.760000000     0.0200581    0.0235689     0.0068545    0.0002370     0.0069531    0.0002322     0.1534985   -0.0785670 
   8.780000000     0.0132757    0.0221962     0.0003860   -0.0061761     0.0004564   -0.0062675     0.1191608   -0.0851276 
   8.800000000     0.0283153   -0.0030636    -0.0055039   -0.0012945    -0.0055789   -0.0012191     0.1188400   -0.1054590 
   8.820000000     0.0011205   -0.0806882    -0.0019433    0.0059277    -0.0018585    0.0059843     0.1503443   -0.1054746 
   8.840000000    -0.0133422   -0.0278048     0.0057416    0.0017558     0.0056957    0.0017530     0.0941753   -0.1226303 
   8.860000000     0.0084093    0.0243786     0.0019716   -0.0050597     0.0020521   -0.0050894     0.0956864   -0.1085729 
   8.880000000    -0.0276478   -0.0376735    -0.0043188   -0.0028228    -0.0043321   -0.0028632     0.1375838   -0.1068029 
   8.900000000    -0.0672611   -0.0571063    -0.0039015    0.0044519    -0.0039743    0.0044998     0.1246399   -0.1561039 
   8.920000000    -0.0659873   -0.0234280     0.0048303    0.0043612     0.0048784    0.0043889     0.0651108   -0.1462304 
   8.940000000    -0.0950981    0.0311064     0.0042342   -0.0050403     0.0042674   -0.0050913     0.0672159   -0.1404866 
   8.960000000    -0.0691742    0.0640819    -0.0046295   -0.0040358    -0.0046642   -0.0041074     0.0762039   -0.1428588 
   8.980000000    -0.0279454    0.0506979    -0.0043922    0.0040705    -0.0044495    0.0040999     0.0799736   -0.1828256 
   9.000000000    -0.0095161    0.0576509     0.0039694    0.0048646     0.0040260    0.0049746     0.0165035   -0.1645042 
   9.020000000    -0.0227771    0.0551237     0.0046353   -0.0041513     0.0047188   -0.0041828     0.0231988   -0.1596141 
   9.040000000    -0.0141449    0.0739332    -0.0035656   -0.0042948    -0.0035705   -0.0044134     0.0219252   -0.1606289 
   9.060000000     0.0648061    0.0775500    -0.0042706    0.0025883    -0.0044049    0.0026795     0.0244187   -0.1280293 
   9.080000000     0.0731559    0.0337075     0.0019052    0.0049444     0.0021355    0.0050212     0.0047022   -0.2010459 
   9.100000000     0.0323147   -0.0075350     0.0051436   -0.0018124     0.0050726   -0.0019345    -0.0116210   -0.1662277 
   9.120000000     0.0534754   -0.0490780    -0.0014349   -0.0050667    -0.0014580   -0.0050672    -0.0215598   -0.1346467 
   9.140000000     0.0384695   -0.0440275    -0.0050681    0.0007214    -0.0050822    0.0007372    -0.0146220   -0.1632321 
   9.160000000     0.0263500    0.0040648    -0.0000078    0.0057243    -0.0000007    0.0057191    -0.0273703   -0.2002449 
   9.180000000     0.0107247   -0.0885407     0.0062732   -0.0000948     0.0062481   -0.0001736    -0.0792189   -0.1811543 
   9.200000000    -0.0531277   -0.1166323    -0.0001927   -0.0060953    -0.0002048   -0.0061244    -0.0876844   -0.1568036 
   9.220000000    -0.0888458   -0.0518629    -0.0058285   -0.0001471    -0.0059021   -0.0001327    -0.0873659   -0.1540372 
   9.240000000    -0.0992853   -0.0260995    -0.0007131    0.0058902    -0.0006745    0.0059027    -0.0866188   -0.1651047 
   9.260000000    -0.0861400   -0.0048098     0.0059959    0.0008124     0.0060665    0.0007913    -0.0918330   -0.1331914 
   9.280000000    -0.0654276    0.0271561     0.0006548   -0.0059259     0.0004852   -0.0059002    -0.1326596   -0.1447231 
   9.300000000    -0.0934960    0.0771559    -0.0049316   -0.0004744    -0.0049529   -0.0004712    -0.1582969   -0.1185282 
   9.320000000    -0.0809147    0.0837393    -0.0013841    0.0039860    -0.0013462    0.0040815    -0.1083833   -0.0923916 
   9.340000000    -0.0572583    0.0577824     0.0038748    0.0026393     0.0040087    0.0025378    -0.1217605   -0.1264921 
   9.360000000     0.0247220    0.0991525     0.0031419   -0.0044981     0.0030140   -0.0044551    -0.1758223   -0.1331959 
   9.380000000     0.0321978    0.0546378    -0.0040828   -0.0029563    -0.0040830   -0.0028249    -0.1796634   -0.0981907 
   9.400000000    -0.0116548    0.0520603    -0.0034501    0.0035575    -0.0033905    0.0035747    -0.1442365   -0.0718383 
   9.420000000     0.0659117    0.0325386     0.0031277    0.0042268     0.0030364    0.0040813    -0.1860628   -0.0888751 
   9.440000000     0.0287386    0.0066094     0.0050590   -0.0036577     0.0049972   -0.0036530    -0.2078779   -0.0796630 
   9.460000000    -0.0242632    0.0415639    -0.0039321   -0.0046150    -0.0039297   -0.0045503    -0.2101769   -0.0350365 
   9.480000000     0.0187138    0.0047137    -0.0044432    0.0034773    -0.0042674    0.0035314    -0.2035335   -0.0249647 
   9.500000000    -0.0093946   -0.0060493     0.0027760    0.0046183     0.0027328    0.0044124    -0.2104201    0.0178876 
   9.520000000    -0.0167751    0.0338872     0.0050548   -0.0026202     0.0049116   -0.0025071    -0.1860085   -0.0002267 
   9.540000000    -0.0195356   -0.0001247    -0.0024254   -0.0051268    -0.0023676   -0.0049375    -0.2073566    0.0030521 
   9.560000000    -0.0059912    0.0041319    -0.0050235    0.0022761    -0.0047886    0.0020838    -0.2126730    0.0278534 
   9.580000000     0.0401795    0.0443946     0.0014419    0.0049046     0.0012735    0.0047385    -0.1955670    0.0682562 
   9.600000000     0.0184463    0.0682213     0.0054537   -0.0008414     0.0053145   -0.0007410    -0.1521544    0.0299518 
   9.620000000     0.0107340    0.0007965    -0.0007095   -0.0059073    -0.0005605   -0.0057521    -0.2279416    0.0300318 
   9.640000000     0.0017900   -0.0493687    -0.0057531    0.0009455    -0.0056933    0.0008200    -0.2359858    0.1006071 
   9.660000000     0.0011087   -0.0223116     0.0005414    0.0054748     0.0003630    0.0053867    -0.1963594    0.1218477 
   9.680000000    -0.0109350   -0.0504995     0.0054140    0.0000223     0.0054075    0.0002983    -0.1681948    0.0872615 
   9.700000000    -0.0302653   -0.0673588     0.0005212   -0.0059722     0.0007954   -0.0059838    -0.2312922    0.1264662 
   9.720000000    -0.0116626   -0.0324615    -0.0061053   -0.0000139    -0.0062369   -0.0001613    -0.1744463    0.1515418 
   9.740000000    -0.1065282   -0.0296655     0.0000819    0.0056932    -0.0000031    0.0057763    -0.1724521    0.1635335 
   9.760000000    -0.1842386    0.0109183     0.0049909    0.0001625     0.0049200    0.0001942    -0.1544802    0.1725465 
   9.780000000    -0.1202041    0.0622773     0.0010406   -0.0047702     0.0010432   -0.0046753    -0.1493806    0.1736424 
   9.800000000    -0.0711626    0.0860170    -0.0048503   -0.0010481    -0.0047932   -0.0010640    -0.1148592    0.1746892 
   9.820000000    -0.0993504    0.1215505    -0.0012622    0.0045454    -0.0013003    0.0044290    -0.1523773    0.1695141 
   9.840000000    -0.0598152    0.1210052     0.0039693    0.0009193     0.0038803    0.0010819    -0.1512455    0.2499262 
   9.860000000     0.0059280    0.1298251     0.0017400   -0.0030404     0.0018625   -0.0029307    -0.0828077    0.1987191 
   9.880000000     0.0777744    0.1754979    -0.0028811   -0.0024347    -0.0028961   -0.0025760    -0.1029072    0.1975257 
   9.900000000     0.1165083    0.1310784    -0.0028300    0.0028753    -0.0028498    0.0028939    -0.1228160    0.2467522 
   9.920000000     0.1179051    0.0244529     0.0027310    0.0027796     0.0027962    0.0028099    -0.0685414    0.2813176 
   9.940000000     0.1042461   -0.0124767     0.0030888   -0.0021526     0.0031886   -0.0021148    -0.0365404    0.2346022 
   9.960000000     0.0684867   -0.0296716    -0.0019347   -0.0035966    -0.0019986   -0.0036753    -0.0335818    0.2507805 
   9.980000000     0.0497492   -0.0826876    -0.0038664    0.0022196    -0.0039179    0.0021799    -0.0217527    0.2854509 
  10.000000000     0.0618778   -0.1262643     0.0019910    0.0034129     0.0019897    0.0033945     0.0012304    0.2585115 
