! 4/11/2025 3:32:41 PM
! C:\ANRITSUVNA\LELEC2350\LAB1_2025\GROUP1_40.S2P
! CHANNEL.1
! TR.MEASUREMENT
! CORRECTED.DATA
! RF.CORRECTION: FULL.TWO.PORT.CAL.PORT.1.2
! AVERAGING.OFF
! IF.BANDWIDTH: 300HZ
! SWEEPTYPE:  FREQ.SWEEP(Linear)
! Reference Plane Port Info
! PORT:              PORT1              PORT2             
! DISTANCE:          0  m               0  m              
! TIME:              0  s               0  s              
! PHASE.OFFSET:      0 °                0 °               
! LOSS:              0  dB              0  dB             
! REF.LOSS:          0  dB              0  dB             
! REF.FREQ:          0  Hz              0  Hz             
! Power Info
! POWER:             5  dBm             5  dBm            
! EFF.POWER:         5  dBm             5  dBm            
# GHZ S RI R 50.0
! FREQ.GHZ         S11RE         S11IM         S21RE         S21IM         S12RE         S12IM         S22RE         S22IM         
!; PortSelection: Port_12
   7.000000000    -0.0805599   -0.0171279     0.0022836    0.0018129     0.0022802    0.0017953    -0.0419780   -0.1076527 
   7.020000000    -0.0753492    0.0459806     0.0028433    0.0000225     0.0028735    0.0000882    -0.0345610   -0.1208680 
   7.040000000    -0.0226333    0.0570197    -0.0002980   -0.0049350    -0.0002279   -0.0048952    -0.0662017   -0.1182875 
   7.060000000    -0.0490720    0.0391143    -0.0044582    0.0017614    -0.0043816    0.0018227    -0.0615483   -0.0886896 
   7.080000000    -0.0011253    0.0740633     0.0008824    0.0033725     0.0008911    0.0033543    -0.0524512   -0.0993564 
   7.100000000     0.0827696    0.0683626     0.0036783    0.0001443     0.0037726    0.0001706    -0.0715926   -0.1079028 
   7.120000000     0.0798528    0.0294329     0.0009384   -0.0047180     0.0009248   -0.0048096    -0.0675115   -0.0847776 
   7.140000000     0.0774405    0.0137296    -0.0060882    0.0002185    -0.0062105    0.0002129    -0.0868127   -0.0927138 
   7.160000000     0.0986941   -0.0692723     0.0011076    0.0047312     0.0010974    0.0047091    -0.0845086   -0.0854673 
   7.180000000     0.0106492   -0.1256589     0.0040212   -0.0000706     0.0040768    0.0001433    -0.0851048   -0.0868943 
   7.200000000    -0.0552845   -0.1048171     0.0009807   -0.0046338     0.0010854   -0.0046029    -0.0909881   -0.0838185 
   7.220000000    -0.0541691   -0.0658225    -0.0059922   -0.0003546    -0.0059467   -0.0002588    -0.1212203   -0.0989220 
   7.240000000    -0.0318926   -0.0389710     0.0014595    0.0047554     0.0014988    0.0046320    -0.1324635   -0.0601251 
   7.260000000    -0.0766446   -0.0303651     0.0027784   -0.0004015     0.0027586   -0.0003916    -0.1012333   -0.0514639 
   7.280000000    -0.1296227    0.0210291     0.0014335   -0.0026309     0.0014589   -0.0026929    -0.1167262   -0.0647202 
   7.300000000    -0.0807903    0.0823313    -0.0038670   -0.0018913    -0.0039334   -0.0018760    -0.1477261   -0.0531071 
   7.320000000     0.0001003    0.0686979    -0.0006686    0.0036563    -0.0006410    0.0036440    -0.1461181   -0.0247676 
   7.340000000     0.0136063    0.0538992     0.0017781    0.0011638     0.0017623    0.0012287    -0.1145803   -0.0232560 
   7.360000000     0.0221103    0.0160131     0.0031862   -0.0013933     0.0032281   -0.0013616    -0.1433790   -0.0321595 
   7.380000000     0.0114710    0.0113081    -0.0025005   -0.0046228    -0.0025121   -0.0045985    -0.1440134   -0.0299391 
   7.400000000     0.0594894    0.0384392    -0.0043453    0.0039753    -0.0043482    0.0040646    -0.1442810   -0.0118661 
   7.420000000     0.0572968   -0.0251848     0.0038848    0.0030690     0.0038832    0.0032219    -0.1607416    0.0051262 
   7.440000000     0.0085204   -0.0386221     0.0032051   -0.0029490     0.0032926   -0.0029426    -0.1545904    0.0130511 
   7.460000000     0.0166476   -0.0225633    -0.0026409   -0.0041757    -0.0026381   -0.0041126    -0.1462994    0.0229053 
   7.480000000    -0.0031562   -0.0507262    -0.0047154    0.0039493    -0.0047030    0.0040025    -0.1609223    0.0036013 
   7.500000000    -0.0326906   -0.0536262     0.0045264    0.0026303     0.0045089    0.0027482    -0.1725910    0.0485374 
   7.520000000    -0.0093974   -0.0625382     0.0020174   -0.0026947     0.0020286   -0.0027322    -0.1394641    0.0590599 
   7.540000000    -0.0290196   -0.0608209    -0.0013717   -0.0026104    -0.0014426   -0.0026728    -0.1449890    0.0649125 
   7.560000000    -0.0675201   -0.0335519    -0.0037358    0.0012789    -0.0037743    0.0012956    -0.1472329    0.0417751 
   7.580000000    -0.1273164    0.0018584     0.0016175    0.0033298     0.0015910    0.0033818    -0.1518820    0.0848480 
   7.600000000    -0.1055093    0.0777715     0.0029734   -0.0004617     0.0030234   -0.0005653    -0.1393212    0.0819051 
   7.620000000    -0.0412165    0.0940126     0.0004491   -0.0034888     0.0004038   -0.0035045    -0.1483111    0.1003815 
   7.640000000    -0.0056842    0.1093593    -0.0048490   -0.0009387    -0.0048440   -0.0009323    -0.1256404    0.0904385 
   7.660000000     0.0785409    0.0624505     0.0001088    0.0053502     0.0000549    0.0054998    -0.1351646    0.0931949 
   7.680000000     0.0667132    0.0200173     0.0046142   -0.0003216     0.0046490   -0.0003539    -0.1455433    0.1241220 
   7.700000000     0.0827587    0.0304504     0.0005452   -0.0043342     0.0004817   -0.0043146    -0.1314679    0.1423596 
   7.720000000     0.0706993   -0.0825807    -0.0047838   -0.0010981    -0.0047559   -0.0011807    -0.1101769    0.1292420 
   7.740000000    -0.0056448   -0.0991876    -0.0010169    0.0054300    -0.0010442    0.0055097    -0.1112601    0.1359621 
   7.760000000     0.0075421   -0.0483135     0.0048812   -0.0001671     0.0049773   -0.0002187    -0.1234625    0.1587937 
   7.780000000    -0.0189717   -0.0824737     0.0004866   -0.0033012     0.0004496   -0.0033283    -0.1013538    0.1532812 
   7.800000000    -0.0899078   -0.0767975    -0.0027251   -0.0019629    -0.0028166   -0.0019464    -0.0751242    0.1653337 
   7.820000000    -0.1055001   -0.0211953    -0.0034571    0.0036357    -0.0034968    0.0036751    -0.0781079    0.1720345 
   7.840000000    -0.0903753    0.0449093     0.0046066    0.0026690     0.0046793    0.0026228    -0.0810519    0.1651923 
   7.860000000    -0.0366875    0.0714232     0.0025667   -0.0034974     0.0025626   -0.0035041    -0.0791273    0.1890743 
   7.880000000    -0.0140271    0.0222296    -0.0030778   -0.0036000    -0.0030913   -0.0036135    -0.0614744    0.1753370 
   7.900000000    -0.0264897    0.0360627    -0.0049383    0.0033906    -0.0049704    0.0034933    -0.0398002    0.2041909 
   7.920000000    -0.0001589    0.0720462     0.0050718    0.0050269     0.0051250    0.0049043    -0.0338496    0.1931697 
   7.940000000     0.0329262    0.0289426     0.0038744   -0.0050296     0.0038134   -0.0050175    -0.0399964    0.1823651 
   7.960000000     0.0777656   -0.0104465    -0.0042941   -0.0038108    -0.0043053   -0.0037908    -0.0087225    0.2102380 
   7.980000000     0.0712223   -0.0446467    -0.0040498    0.0038323    -0.0041539    0.0038668     0.0129374    0.2293272 
   8.000000000    -0.0173240   -0.0358528     0.0041433    0.0046418     0.0042123    0.0045664     0.0225318    0.1836510 
   8.020000000    -0.0194571   -0.0353592     0.0037103   -0.0043972     0.0036162   -0.0044669     0.0330142    0.1883737 
   8.040000000    -0.0228887   -0.0802869    -0.0030060   -0.0029814    -0.0029611   -0.0029598     0.0328304    0.1921866 
   8.060000000    -0.0545765   -0.0374355    -0.0037119    0.0018291    -0.0037175    0.0019313     0.0446995    0.2019968 
   8.080000000    -0.0417054   -0.0388497     0.0012357    0.0049029     0.0013360    0.0048674     0.0665093    0.1916358 
   8.100000000    -0.0901402   -0.0472630     0.0053793   -0.0022627     0.0054563   -0.0023554     0.0570679    0.1656775 
   8.120000000    -0.1136279    0.0709906    -0.0017563   -0.0045212    -0.0017029   -0.0045887     0.0638556    0.1805037 
   8.140000000    -0.0445566    0.1254811    -0.0049604    0.0007329    -0.0050674    0.0007117     0.0673426    0.1923782 
   8.160000000    -0.0066120    0.0708826     0.0002937    0.0059792     0.0003281    0.0060128     0.0954493    0.1898437 
   8.180000000     0.0293393    0.0443669     0.0069034   -0.0016107     0.0068075   -0.0015885     0.1142515    0.1549817 
   8.200000000     0.0522416    0.0304284    -0.0020022   -0.0054108    -0.0019878   -0.0053570     0.1082979    0.1632475 
   8.220000000     0.0413790    0.0384575    -0.0046851    0.0009190    -0.0048028    0.0009869     0.1171305    0.1654422 
   8.240000000     0.0932644   -0.0067162     0.0002750    0.0049608     0.0004247    0.0050449     0.1465225    0.1493042 
   8.260000000     0.1135498   -0.0984665     0.0052661   -0.0002203     0.0053365   -0.0003018     0.1383607    0.1379059 
   8.280000000     0.0181967   -0.1116167    -0.0003878   -0.0046862    -0.0004327   -0.0047037     0.1368440    0.1332909 
   8.300000000    -0.0591633   -0.0894322    -0.0036828   -0.0002616    -0.0037230   -0.0002319     0.1613156    0.1105245 
   8.320000000    -0.0707138   -0.0735056    -0.0015211    0.0036380    -0.0014996    0.0036042     0.1221845    0.1190033 
   8.340000000    -0.0697372   -0.0566282     0.0038297    0.0023676     0.0038019    0.0022912     0.1429113    0.1250225 
   8.360000000    -0.1370862   -0.0554862     0.0027339   -0.0045448     0.0027065   -0.0046131     0.1803840    0.1039012 
   8.380000000    -0.1183060    0.0135987    -0.0041961   -0.0026051    -0.0041818   -0.0025296     0.1705081    0.0780908 
   8.400000000    -0.0608856    0.0237360    -0.0033802    0.0042766    -0.0033348    0.0043253     0.1362173    0.0890752 
   8.420000000    -0.0746153    0.1028804     0.0044994    0.0034665     0.0044605    0.0035187     0.1830230    0.1048877 
   8.440000000    -0.0200803    0.1230456     0.0036878   -0.0051643     0.0037483   -0.0051049     0.1964941    0.0707017 
   8.460000000    -0.0258513    0.0621720    -0.0047373   -0.0026094    -0.0047108   -0.0025396     0.1830956    0.0315361 
   8.480000000     0.0336702    0.0688486    -0.0029178    0.0036865    -0.0028885    0.0036802     0.1633391    0.0561276 
   8.500000000     0.0627638    0.0139406     0.0032513    0.0032219     0.0033034    0.0032332     0.1784914    0.0359852 
   8.520000000     0.0223303    0.0054476     0.0036817   -0.0029762     0.0036619   -0.0030685     0.1968714    0.0101600 
   8.540000000     0.0696512   -0.0155124    -0.0025957   -0.0032074    -0.0025325   -0.0031741     0.1916802    0.0232556 
   8.560000000     0.0455035   -0.0304898    -0.0038056    0.0012706    -0.0038599    0.0013056     0.1704671   -0.0033709 
   8.580000000     0.0133582   -0.0274651     0.0007086    0.0049002     0.0007463    0.0049351     0.1530275   -0.0266999 
   8.600000000    -0.0320813   -0.0704137     0.0059656   -0.0010659     0.0059541   -0.0010856     0.1717014    0.0265417 
   8.620000000    -0.0469193   -0.0191747    -0.0016250   -0.0060075    -0.0016333   -0.0059919     0.1905327    0.0074938 
   8.640000000    -0.0276993   -0.0104064    -0.0054170    0.0013912    -0.0054107    0.0013206     0.1910155   -0.0492388 
   8.660000000    -0.0920932   -0.0239271     0.0004851    0.0058716     0.0004768    0.0059251     0.1510658   -0.0516705 
   8.680000000    -0.0593512    0.0344110     0.0064698   -0.0007587     0.0064299   -0.0008008     0.1735781   -0.0256221 
   8.700000000     0.0340715    0.0182764    -0.0010064   -0.0063659    -0.0009853   -0.0064055     0.1890142   -0.0474251 
   8.720000000    -0.0135448    0.0138308    -0.0053877    0.0011992    -0.0054676    0.0011444     0.1561392   -0.0953359 
   8.740000000    -0.0315277    0.0712326    -0.0001940    0.0053029    -0.0001523    0.0053074     0.1421582   -0.0925874 
   8.760000000     0.0108669    0.0287519     0.0056155    0.0002637     0.0056516    0.0002863     0.1536197   -0.0830152 
   8.780000000     0.0162151    0.0297125     0.0004847   -0.0053697     0.0005127   -0.0054843     0.1137535   -0.0863766 
   8.800000000     0.0384484   -0.0075048    -0.0046500   -0.0005610    -0.0047635   -0.0005612     0.1154807   -0.0992651 
   8.820000000    -0.0038702   -0.0922365    -0.0022968    0.0043238    -0.0023400    0.0043819     0.1567530   -0.1004470 
   8.840000000    -0.0269480   -0.0225917     0.0050847    0.0027886     0.0050939    0.0028297     0.1001466   -0.1269955 
   8.860000000     0.0153648    0.0324615     0.0030979   -0.0055940     0.0031292   -0.0056576     0.0920554   -0.1143850 
   8.880000000    -0.0195652   -0.0446762    -0.0057230   -0.0028053    -0.0057159   -0.0027858     0.1306119   -0.1045563 
   8.900000000    -0.0749124   -0.0633535    -0.0031705    0.0050181    -0.0032137    0.0050018     0.1271403   -0.1484194 
   8.920000000    -0.0748911   -0.0163727     0.0052378    0.0040747     0.0052741    0.0040086     0.0735919   -0.1490271 
   8.940000000    -0.0880506    0.0362819     0.0041773   -0.0061391     0.0041516   -0.0061517     0.0655113   -0.1486800 
   8.960000000    -0.0657096    0.0615251    -0.0061945   -0.0028593    -0.0061757   -0.0028789     0.0665125   -0.1431074 
   8.980000000    -0.0355384    0.0487938    -0.0022909    0.0047828    -0.0023517    0.0048245     0.0773255   -0.1736940 
   9.000000000    -0.0149162    0.0615788     0.0036296    0.0031502     0.0035409    0.0031158     0.0268348   -0.1604901 
   9.020000000    -0.0165637    0.0579048     0.0039722   -0.0035700     0.0040061   -0.0035694     0.0269242   -0.1679586 
   9.040000000    -0.0140890    0.0698285    -0.0034959   -0.0038560    -0.0035164   -0.0038857     0.0137355   -0.1660508 
   9.060000000     0.0590979    0.0770149    -0.0035760    0.0029737    -0.0036424    0.0029866     0.0192957   -0.1209223 
   9.080000000     0.0728665    0.0396277     0.0013820    0.0039327     0.0014369    0.0039437     0.0123809   -0.1923608 
   9.100000000     0.0397044   -0.0050849     0.0052038   -0.0011892     0.0052263   -0.0011827    -0.0012890   -0.1738731 
   9.120000000     0.0528373   -0.0558194    -0.0013002   -0.0058606    -0.0013172   -0.0058624    -0.0273819   -0.1464615 
   9.140000000     0.0300681   -0.0448981    -0.0058083    0.0018719    -0.0058734    0.0019534    -0.0255893   -0.1603598 
   9.160000000     0.0267508    0.0123540     0.0010974    0.0049501     0.0011800    0.0050265    -0.0256245   -0.1889926 
   9.180000000     0.0194177   -0.0856313     0.0059520   -0.0005611     0.0060615   -0.0006020    -0.0683302   -0.1809373 
   9.200000000    -0.0539103   -0.1246850    -0.0007337   -0.0062537    -0.0008003   -0.0061828    -0.0877813   -0.1685823 
   9.220000000    -0.0962102   -0.0507428    -0.0060937    0.0012307    -0.0060582    0.0012895    -0.0985524   -0.1561042 
   9.240000000    -0.0966554   -0.0169558     0.0010647    0.0046443     0.0010500    0.0046900    -0.0909089   -0.1532905 
   9.260000000    -0.0776613   -0.0021903     0.0045811    0.0004236     0.0045486    0.0004404    -0.0812598   -0.1255273 
   9.280000000    -0.0656334    0.0204455     0.0010202   -0.0049273     0.0009492   -0.0049425    -0.1233135   -0.1549359 
   9.300000000    -0.0974514    0.0790181    -0.0048797   -0.0006873    -0.0049165   -0.0007167    -0.1658100   -0.1283798 
   9.320000000    -0.0772811    0.0901591    -0.0011925    0.0038152    -0.0011917    0.0038485    -0.1190445   -0.0862031 
   9.340000000    -0.0516848    0.0578324     0.0033501    0.0028470     0.0033260    0.0028216    -0.1178196   -0.1138727 
   9.360000000     0.0275918    0.0918647     0.0042425   -0.0044650     0.0041933   -0.0044842    -0.1612100   -0.1371424 
   9.380000000     0.0304551    0.0547197    -0.0052850   -0.0036331    -0.0053134   -0.0037021    -0.1807616   -0.1134138 
   9.400000000    -0.0078674    0.0581986    -0.0033554    0.0050097    -0.0034342    0.0050148    -0.1577917   -0.0726991 
   9.420000000     0.0731741    0.0310858     0.0039767    0.0033876     0.0039770    0.0034224    -0.1912488   -0.0750241 
   9.440000000     0.0284540   -0.0029151     0.0051138   -0.0038259     0.0050782   -0.0039168    -0.1936503   -0.0737405 
   9.460000000    -0.0317040    0.0456011    -0.0049702   -0.0051214    -0.0050385   -0.0050639    -0.2016251   -0.0487356 
   9.480000000     0.0254329    0.0114735    -0.0042765    0.0052678    -0.0042055    0.0052887    -0.2167266   -0.0337042 
   9.500000000    -0.0057091   -0.0121662     0.0040871    0.0031647     0.0041134    0.0031128    -0.2214684    0.0288843 
   9.520000000    -0.0188622    0.0271630     0.0041253   -0.0024720     0.0040547   -0.0024782    -0.1760878    0.0131379 
   9.540000000    -0.0234411    0.0025908    -0.0026015   -0.0051424    -0.0025663   -0.0050742    -0.1915009   -0.0045105 
   9.560000000    -0.0012431    0.0073165    -0.0052029    0.0028894    -0.0051872    0.0028805    -0.2182259    0.0121950 
   9.580000000     0.0428146    0.0390544     0.0023212    0.0042865     0.0023382    0.0042260    -0.2097345    0.0710934 
   9.600000000     0.0180392    0.0635809     0.0048753   -0.0007276     0.0049190   -0.0007399    -0.1515016    0.0438745 
   9.620000000     0.0068036    0.0035280    -0.0003033   -0.0062414    -0.0003790   -0.0061873    -0.2122949    0.0314967 
   9.640000000     0.0046876   -0.0483980    -0.0070793    0.0012343    -0.0070416    0.0012455    -0.2307476    0.0864589 
   9.660000000     0.0012644   -0.0319920     0.0017808    0.0061676     0.0017320    0.0060900    -0.2118194    0.1139865 
   9.680000000    -0.0154142   -0.0541670     0.0056033   -0.0009341     0.0055729   -0.0009024    -0.1789538    0.0989253 
   9.700000000    -0.0344887   -0.0624865    -0.0001256   -0.0059287    -0.0000926   -0.0058793    -0.2208959    0.1408820 
   9.720000000    -0.0052884   -0.0305674    -0.0068887    0.0005068    -0.0068168    0.0004566    -0.1614023    0.1423625 
   9.740000000    -0.1062031   -0.0402831     0.0011259    0.0059998     0.0011080    0.0059652    -0.1798301    0.1484154 
   9.760000000    -0.1927499    0.0119176     0.0047057   -0.0009849     0.0046350   -0.0009508    -0.1701806    0.1769417 
   9.780000000    -0.1232359    0.0712639     0.0007114   -0.0037029     0.0007177   -0.0036740    -0.1478311    0.1930745 
   9.800000000    -0.0640255    0.0865156    -0.0046241   -0.0018006    -0.0046764   -0.0018281    -0.0961922    0.1754878 
   9.820000000    -0.0993437    0.1121367    -0.0017750    0.0048283    -0.0017486    0.0048124    -0.1493509    0.1513959 
   9.840000000    -0.0677527    0.1223163     0.0043437    0.0013890     0.0043873    0.0013756    -0.1676263    0.2436141 
   9.860000000     0.0030643    0.1344199     0.0024845   -0.0031917     0.0024584   -0.0031015    -0.0916579    0.2141147 
   9.880000000     0.0831349    0.1765431    -0.0036030   -0.0038854    -0.0035085   -0.0038409    -0.0891381    0.2081382 
   9.900000000     0.1202252    0.1267089    -0.0042601    0.0045586    -0.0042007    0.0044353    -0.1112410    0.2337712 
   9.920000000     0.1119448    0.0260201     0.0049731    0.0034725     0.0049405    0.0034713    -0.0801493    0.2689238 
   9.940000000     0.1017525   -0.0100163     0.0029380   -0.0038235     0.0030251   -0.0037860    -0.0524816    0.2422313 
   9.960000000     0.0707645   -0.0288491    -0.0032297   -0.0034728    -0.0032852   -0.0035330    -0.0285197    0.2690553 
   9.980000000     0.0507739   -0.0851127    -0.0042387    0.0030470    -0.0042076    0.0030287    -0.0039895    0.2829016 
  10.000000000     0.0552348   -0.1262603     0.0031726    0.0036605     0.0030938    0.0037580     0.0023815    0.2419294 
