! 4/11/2025 3:35:30 PM
! C:\ANRITSUVNA\LELEC2350\LAB1_2025\GROUP1_60.S2P
! CHANNEL.1
! TR.MEASUREMENT
! CORRECTED.DATA
! RF.CORRECTION: FULL.TWO.PORT.CAL.PORT.1.2
! AVERAGING.OFF
! IF.BANDWIDTH: 300HZ
! SWEEPTYPE:  FREQ.SWEEP(Linear)
! Reference Plane Port Info
! PORT:              PORT1              PORT2             
! DISTANCE:          0  m               0  m              
! TIME:              0  s               0  s              
! PHASE.OFFSET:      0 °                0 °               
! LOSS:              0  dB              0  dB             
! REF.LOSS:          0  dB              0  dB             
! REF.FREQ:          0  Hz              0  Hz             
! Power Info
! POWER:             5  dBm             5  dBm            
! EFF.POWER:         5  dBm             5  dBm            
# GHZ S RI R 50.0
! FREQ.GHZ         S11RE         S11IM         S21RE         S21IM         S12RE         S12IM         S22RE         S22IM         
!; PortSelection: Port_12
   7.000000000    -0.0661700   -0.0331190    -0.0127901    0.0097481    -0.0127425    0.0096271    -0.0507084   -0.1008366 
   7.020000000    -0.0856938    0.0405308     0.0103189    0.0147024     0.0101042    0.0149142    -0.0322897   -0.1177269 
   7.040000000    -0.0407479    0.0787228     0.0141802   -0.0115171     0.0141185   -0.0110047    -0.0614105   -0.1119273 
   7.060000000    -0.0293579    0.0353084    -0.0101737   -0.0139011    -0.0101481   -0.0136757    -0.0539451   -0.1001127 
   7.080000000     0.0086805    0.0604358    -0.0145789    0.0093884    -0.0143920    0.0095624    -0.0640234   -0.1019311 
   7.100000000     0.0673478    0.0730351     0.0091257    0.0152510     0.0088501    0.0154615    -0.0717745   -0.1025754 
   7.120000000     0.0709788    0.0450464     0.0154344   -0.0096615     0.0159144   -0.0096409    -0.0681704   -0.0807622 
   7.140000000     0.0971733    0.0022553    -0.0089352   -0.0144989    -0.0090021   -0.0147221    -0.0761388   -0.0936344 
   7.160000000     0.0950302   -0.0762508    -0.0145449    0.0076503    -0.0147462    0.0074722    -0.0900640   -0.0952026 
   7.180000000    -0.0015468   -0.1131803     0.0070677    0.0146613     0.0061772    0.0151444    -0.0902228   -0.0815017 
   7.200000000    -0.0505272   -0.1007411     0.0151989   -0.0061572     0.0155035   -0.0057770    -0.0919046   -0.0820967 
   7.220000000    -0.0366497   -0.0818376    -0.0056966   -0.0143582    -0.0059088   -0.0143583    -0.1164262   -0.0911429 
   7.240000000    -0.0457512   -0.0383313    -0.0139479    0.0037122    -0.0138247    0.0038118    -0.1245763   -0.0690906 
   7.260000000    -0.0887535   -0.0148204     0.0020759    0.0147748     0.0019810    0.0148066    -0.1092732   -0.0540107 
   7.280000000    -0.1196399    0.0211722     0.0154487   -0.0012991     0.0160310   -0.0010711    -0.1189730   -0.0641120 
   7.300000000    -0.0659356    0.0684221    -0.0014254   -0.0155478    -0.0014634   -0.0161078    -0.1495465   -0.0448841 
   7.320000000    -0.0175355    0.0687884    -0.0146670    0.0006654    -0.0149056    0.0006372    -0.1322374   -0.0259426 
   7.340000000     0.0021707    0.0653111    -0.0008395    0.0144285    -0.0009228    0.0146211    -0.1196684   -0.0343236 
   7.360000000     0.0386332    0.0178271     0.0149085    0.0014515     0.0150793    0.0018180    -0.1486503   -0.0309889 
   7.380000000     0.0287966    0.0033662     0.0017368   -0.0151750     0.0017757   -0.0154779    -0.1496833   -0.0243756 
   7.400000000     0.0409732    0.0374324    -0.0139511   -0.0017214    -0.0143230   -0.0015297    -0.1351739   -0.0035420 
   7.420000000     0.0491939   -0.0171576    -0.0028814    0.0128187    -0.0030223    0.0131703    -0.1556263   -0.0064426 
   7.440000000     0.0251308   -0.0385995     0.0122898    0.0040708     0.0126099    0.0042366    -0.1618869    0.0103277 
   7.460000000     0.0221711   -0.0259657     0.0053780   -0.0120463     0.0052387   -0.0122041    -0.1515973    0.0251807 
   7.480000000    -0.0208968   -0.0525976    -0.0116785   -0.0056901    -0.0120225   -0.0054832    -0.1598964    0.0147883 
   7.500000000    -0.0294999   -0.0526071    -0.0062971    0.0103506    -0.0062598    0.0104571    -0.1603192    0.0443633 
   7.520000000     0.0084443   -0.0632361     0.0095810    0.0080180     0.0097700    0.0078822    -0.1449659    0.0501679 
   7.540000000    -0.0318028   -0.0609337     0.0089045   -0.0094097     0.0088205   -0.0098628    -0.1491510    0.0647664 
   7.560000000    -0.0835864   -0.0367732    -0.0091462   -0.0094229    -0.0094231   -0.0092027    -0.1541888    0.0484218 
   7.580000000    -0.1217283    0.0039615    -0.0096986    0.0081937    -0.0098283    0.0080809    -0.1409190    0.0919807 
   7.600000000    -0.0906631    0.0825503     0.0070943    0.0109625     0.0074457    0.0108139    -0.1355581    0.0713530 
   7.620000000    -0.0483726    0.0888858     0.0115989   -0.0073726     0.0113846   -0.0074333    -0.1520180    0.0974743 
   7.640000000    -0.0227522    0.0993596    -0.0066795   -0.0114979    -0.0066839   -0.0115394    -0.1346298    0.0899062 
   7.660000000     0.0885470    0.0739865    -0.0113610    0.0055217    -0.0115140    0.0055344    -0.1346589    0.1064274 
   7.680000000     0.0822021    0.0240767     0.0036341    0.0121597     0.0036343    0.0122347    -0.1321569    0.1202272 
   7.700000000     0.0690273    0.0176645     0.0139046   -0.0030446     0.0137988   -0.0031160    -0.1330576    0.1335789 
   7.720000000     0.0627248   -0.0850025    -0.0030902   -0.0141575    -0.0028671   -0.0140072    -0.1179674    0.1249588 
   7.740000000     0.0124534   -0.0838827    -0.0142165    0.0019592    -0.0143228    0.0019397    -0.1207027    0.1473355 
   7.760000000     0.0097448   -0.0513612     0.0009291    0.0141043     0.0010153    0.0143206    -0.1097830    0.1661308 
   7.780000000    -0.0386008   -0.0949036     0.0153013    0.0003481     0.0153527    0.0000345    -0.0959248    0.1422614 
   7.800000000    -0.0894226   -0.0732540     0.0003222   -0.0159382     0.0000737   -0.0162052    -0.0815842    0.1591940 
   7.820000000    -0.0866979   -0.0074081    -0.0156988   -0.0004181    -0.0158087   -0.0004353    -0.0902196    0.1751840 
   7.840000000    -0.0926354    0.0333633    -0.0004510    0.0151120    -0.0005521    0.0152369    -0.0758370    0.1803457 
   7.860000000    -0.0534440    0.0574596     0.0144418    0.0017390     0.0144093    0.0018508    -0.0658441    0.1830612 
   7.880000000    -0.0103213    0.0371693     0.0026090   -0.0145049     0.0026944   -0.0146842    -0.0644652    0.1666682 
   7.900000000    -0.0124734    0.0545597    -0.0138149   -0.0031051    -0.0139994   -0.0031344    -0.0496145    0.2002766 
   7.920000000    -0.0035314    0.0524126    -0.0042027    0.0137199    -0.0041551    0.0135809    -0.0405273    0.2053141 
   7.940000000     0.0215769    0.0143753     0.0126669    0.0053501     0.0127870    0.0054731    -0.0254193    0.1873062 
   7.960000000     0.0803366    0.0097040     0.0068800   -0.0128805     0.0070812   -0.0129617    -0.0064491    0.2008890 
   7.980000000     0.0771680   -0.0302698    -0.0129583   -0.0074097    -0.0131071   -0.0077396     0.0073169    0.2223168 
   8.000000000    -0.0186657   -0.0597694    -0.0082978    0.0125234    -0.0082383    0.0126531     0.0091488    0.1880688 
   8.020000000    -0.0225107   -0.0438675     0.0119419    0.0088301     0.0121980    0.0087798     0.0404958    0.2035802 
   8.040000000    -0.0190321   -0.0595823     0.0096333   -0.0120502     0.0097735   -0.0120614     0.0441306    0.1859111 
   8.060000000    -0.0563339   -0.0356743    -0.0120776   -0.0098019    -0.0123963   -0.0097840     0.0438374    0.1934669 
   8.080000000    -0.0461186   -0.0571607    -0.0091939    0.0111942    -0.0091039    0.0114915     0.0553076    0.1861531 
   8.100000000    -0.0890879   -0.0384711     0.0101900    0.0092170     0.0103881    0.0094953     0.0510243    0.1812721 
   8.120000000    -0.1107119    0.0871960     0.0096098   -0.0087511     0.0100855   -0.0088967     0.0773849    0.1845524 
   8.140000000    -0.0510671    0.1154951    -0.0077968   -0.0107112    -0.0080221   -0.0109857     0.0720031    0.1833334 
   8.160000000    -0.0059031    0.0561340    -0.0105812    0.0068617    -0.0106621    0.0071796     0.0900700    0.1793886 
   8.180000000     0.0306316    0.0607180     0.0056539    0.0111169     0.0057764    0.0110624     0.0987358    0.1624341 
   8.200000000     0.0550109    0.0469722     0.0115540   -0.0041520     0.0116440   -0.0044094     0.1159386    0.1771558 
   8.220000000     0.0477363    0.0210612    -0.0028188   -0.0125524    -0.0033065   -0.0125992     0.1290311    0.1622766 
   8.240000000     0.0949036   -0.0199328    -0.0134235    0.0024704    -0.0133992    0.0031184     0.1480002    0.1382678 
   8.260000000     0.1033851   -0.0764212     0.0019876    0.0136063     0.0023307    0.0135782     0.1226508    0.1339539 
   8.280000000     0.0199329   -0.0998203     0.0136022   -0.0012320     0.0136272   -0.0015501     0.1339276    0.1500317 
   8.300000000    -0.0456881   -0.1145270    -0.0005574   -0.0137302    -0.0008817   -0.0137262     0.1740903    0.1165665 
   8.320000000    -0.0706727   -0.0810808    -0.0135840    0.0001828    -0.0133264    0.0003759     0.1306245    0.1082092 
   8.340000000    -0.0825600   -0.0403495    -0.0003423    0.0127131    -0.0002269    0.0127006     0.1333945    0.1133111 
   8.360000000    -0.1333251   -0.0545186     0.0123658    0.0017349     0.0123705    0.0015055     0.1667227    0.1140823 
   8.380000000    -0.1056354   -0.0003067     0.0024351   -0.0120078     0.0022402   -0.0117665     0.1789755    0.0894596 
   8.400000000    -0.0632339    0.0291340    -0.0111925   -0.0038472    -0.0110355   -0.0036076     0.1485939    0.0866980 
   8.420000000    -0.0901830    0.1136238    -0.0048441    0.0106440    -0.0047821    0.0103979     0.1839874    0.0894402 
   8.440000000    -0.0179287    0.1191193     0.0099239    0.0067283     0.0096591    0.0068362     0.1788881    0.0689809 
   8.460000000    -0.0100035    0.0529732     0.0084405   -0.0103543     0.0082798   -0.0102747     0.1816118    0.0473532 
   8.480000000     0.0264429    0.0750822    -0.0103777   -0.0091170    -0.0101419   -0.0089549     0.1747608    0.0616390 
   8.500000000     0.0497555    0.0222737    -0.0097330    0.0105035    -0.0097388    0.0103295     0.1904084    0.0261849 
   8.520000000     0.0386374    0.0008847     0.0098163    0.0100638     0.0096831    0.0100426     0.1836018   -0.0022744 
   8.540000000     0.0835686   -0.0221325     0.0110966   -0.0096004     0.0111506   -0.0093808     0.1780189    0.0346534 
   8.560000000     0.0273875   -0.0266448    -0.0092934   -0.0112533    -0.0092498   -0.0113431     0.1784140    0.0103198 
   8.580000000     0.0020215   -0.0223325    -0.0112460    0.0089596    -0.0114156    0.0087154     0.1687512   -0.0280701 
   8.600000000    -0.0114803   -0.0746201     0.0076791    0.0110125     0.0075502    0.0113045     0.1703072    0.0067614 
   8.620000000    -0.0427632   -0.0237797     0.0117815   -0.0058257     0.0119716   -0.0058263     0.1721181    0.0089379 
   8.640000000    -0.0499292   -0.0093172    -0.0055037   -0.0127476    -0.0054171   -0.0128914     0.1889740   -0.0333117 
   8.660000000    -0.0902440   -0.0245983    -0.0128649    0.0043144    -0.0130231    0.0043406     0.1663595   -0.0447779 
   8.680000000    -0.0370845    0.0305782     0.0033194    0.0133921     0.0033197    0.0134973     0.1852496   -0.0420031 
   8.700000000     0.0264364    0.0224246     0.0139127   -0.0017592     0.0141906   -0.0017770     0.1713841   -0.0586201 
   8.720000000    -0.0331378    0.0156702    -0.0011644   -0.0153889    -0.0013399   -0.0154515     0.1462675   -0.0812815 
   8.740000000    -0.0253633    0.0692304    -0.0155103    0.0015243    -0.0155935    0.0015270     0.1487176   -0.0794025 
   8.760000000     0.0278179    0.0284151     0.0006673    0.0150855     0.0007983    0.0153222     0.1712210   -0.0886108 
   8.780000000     0.0007944    0.0262976     0.0147739    0.0001308     0.0149246    0.0000794     0.1075218   -0.1054071 
   8.800000000     0.0197525   -0.0099807     0.0012775   -0.0153110     0.0012222   -0.0154826     0.0991943   -0.0933985 
   8.820000000     0.0165257   -0.0818507    -0.0152347   -0.0008588    -0.0154327   -0.0007131     0.1553562   -0.0870357 
   8.840000000    -0.0077250   -0.0223949    -0.0013547    0.0140351    -0.0013356    0.0141330     0.1163642   -0.1216286 
   8.860000000    -0.0116322    0.0224141     0.0129638    0.0024524     0.0131229    0.0024598     0.1012540   -0.1319113 
   8.880000000    -0.0317136   -0.0431668     0.0043929   -0.0122382     0.0042209   -0.0124087     0.1137339   -0.1117546 
   8.900000000    -0.0526370   -0.0498825    -0.0125666   -0.0055457    -0.0126555   -0.0054429     0.1178715   -0.1377117 
   8.920000000    -0.0680263   -0.0140982    -0.0058099    0.0120827    -0.0057502    0.0120196     0.0806688   -0.1352902 
   8.940000000    -0.1070566    0.0215703     0.0109362    0.0067994     0.0108864    0.0067032     0.0834087   -0.1556559 
   8.960000000    -0.0677030    0.0562471     0.0080723   -0.0101300     0.0080032   -0.0100768     0.0591796   -0.1602956 
   8.980000000    -0.0221093    0.0637702    -0.0101190   -0.0096488    -0.0100374   -0.0096313     0.0608433   -0.1693570 
   9.000000000    -0.0158417    0.0649316    -0.0097845    0.0102056    -0.0098138    0.0101257     0.0257097   -0.1458306 
   9.020000000    -0.0263467    0.0431531     0.0093653    0.0097865     0.0092867    0.0098581     0.0450489   -0.1611344 
   9.040000000    -0.0067831    0.0716595     0.0104035   -0.0081988     0.0104794   -0.0081947     0.0200804   -0.1847556 
   9.060000000     0.0651776    0.0935088    -0.0071075   -0.0114229    -0.0071859   -0.0115449     0.0038111   -0.1282479 
   9.080000000     0.0626796    0.0342772    -0.0121268    0.0068764    -0.0121761    0.0067721     0.0035304   -0.1827353 
   9.100000000     0.0340178   -0.0198671     0.0059730    0.0118087     0.0059317    0.0118868     0.0064578   -0.1593624 
   9.120000000     0.0644584   -0.0409325     0.0122951   -0.0045557     0.0123457   -0.0045267    -0.0099706   -0.1563966 
   9.140000000     0.0359056   -0.0336624    -0.0034509   -0.0129929    -0.0034922   -0.0131111    -0.0349276   -0.1757909 
   9.160000000     0.0162855   -0.0083796    -0.0135744    0.0029500    -0.0136135    0.0028903    -0.0390876   -0.1855824 
   9.180000000     0.0173213   -0.0930443     0.0025324    0.0136016     0.0024495    0.0135634    -0.0719149   -0.1644725 
   9.200000000    -0.0420845   -0.0991249     0.0131750   -0.0013576     0.0132648   -0.0012940    -0.0673498   -0.1623968 
   9.220000000    -0.0948854   -0.0463824     0.0000507   -0.0133993     0.0000874   -0.0134879    -0.0951284   -0.1770657 
   9.240000000    -0.1019302   -0.0427331    -0.0139336   -0.0008951    -0.0139593   -0.0009888    -0.1050095   -0.1578796 
   9.260000000    -0.0777950   -0.0042947    -0.0011110    0.0139957    -0.0011799    0.0141924    -0.0929807   -0.1160323 
   9.280000000    -0.0669917    0.0439300     0.0130826    0.0015108     0.0131093    0.0016044    -0.1129629   -0.1380626 
   9.300000000    -0.1018260    0.0752663     0.0030287   -0.0122187     0.0031399   -0.0124389    -0.1482352   -0.1417701 
   9.320000000    -0.0703532    0.0691263    -0.0121546   -0.0046496    -0.0123580   -0.0046385    -0.1293204   -0.0991283 
   9.340000000    -0.0466940    0.0630976    -0.0052748    0.0125242    -0.0053045    0.0126883    -0.1300004   -0.1134929 
   9.360000000     0.0152649    0.1147323     0.0120968    0.0052948     0.0122758    0.0053441    -0.1656083   -0.1181505 
   9.380000000     0.0291941    0.0465926     0.0059835   -0.0107144     0.0060232   -0.0108295    -0.1588928   -0.1095037 
   9.400000000     0.0023608    0.0401867    -0.0096045   -0.0075783    -0.0098754   -0.0076254    -0.1570451   -0.0913962 
   9.420000000     0.0679801    0.0454305    -0.0090575    0.0095043    -0.0088498    0.0097107    -0.2021736   -0.0796464 
   9.440000000     0.0176740    0.0116809     0.0094825    0.0095047     0.0096611    0.0095599    -0.2071211   -0.0640707 
   9.460000000    -0.0217769    0.0237503     0.0095705   -0.0085856     0.0096026   -0.0088117    -0.1884205   -0.0317311 
   9.480000000     0.0332203    0.0016707    -0.0073276   -0.0103142    -0.0076019   -0.0102929    -0.2003164   -0.0488677 
   9.500000000    -0.0151830    0.0049549    -0.0115652    0.0065217    -0.0115564    0.0067131    -0.2318242    0.0157149 
   9.520000000    -0.0291163    0.0296714     0.0063343    0.0123482     0.0065681    0.0121963    -0.1929687    0.0147616 
   9.540000000    -0.0075768   -0.0115483     0.0122374   -0.0058198     0.0121261   -0.0059647    -0.1941283    0.0164136 
   9.560000000     0.0056306    0.0092202    -0.0045841   -0.0124522    -0.0048496   -0.0123344    -0.1954264    0.0125026 
   9.580000000     0.0226624    0.0497855    -0.0130386    0.0033747    -0.0127097    0.0035717    -0.2119788    0.0523366 
   9.600000000     0.0061768    0.0588991     0.0029711    0.0138667     0.0030347    0.0136599    -0.1652453    0.0402618 
   9.620000000     0.0283749   -0.0057490     0.0136558   -0.0026368     0.0134748   -0.0026820    -0.2245880    0.0455023 
   9.640000000     0.0072759   -0.0430294    -0.0015938   -0.0132786    -0.0015228   -0.0130589    -0.2139137    0.1002833 
   9.660000000    -0.0176732   -0.0245611    -0.0130172    0.0001721    -0.0129228    0.0002759    -0.2002340    0.0976274 
   9.680000000    -0.0091597   -0.0606845    -0.0011348    0.0137764    -0.0011917    0.0135927    -0.1886325    0.0888793 
   9.700000000    -0.0148626   -0.0640859     0.0139611    0.0011040     0.0138952    0.0011278    -0.2347687    0.1409329 
   9.720000000    -0.0227673   -0.0212853     0.0014827   -0.0131890     0.0014603   -0.0131356    -0.1604736    0.1623587 
   9.740000000    -0.1216381   -0.0383360    -0.0126063   -0.0025730    -0.0124948   -0.0025162    -0.1603854    0.1442681 
   9.760000000    -0.1722537   -0.0016495    -0.0040977    0.0121742    -0.0040386    0.0120517    -0.1747416    0.1612625 
   9.780000000    -0.1104351    0.0696410     0.0127664    0.0047819     0.0126200    0.0046323    -0.1596656    0.1879840 
   9.800000000    -0.0893355    0.0915591     0.0044505   -0.0122991     0.0044399   -0.0121875    -0.1085195    0.1899286 
   9.820000000    -0.1071373    0.1095677    -0.0112575   -0.0050135    -0.0111073   -0.0049190    -0.1336714    0.1647096 
   9.840000000    -0.0436057    0.1199363    -0.0056252    0.0098903    -0.0056239    0.0095157    -0.1583276    0.2281952 
   9.860000000     0.0084616    0.1440123     0.0091303    0.0069108     0.0089042    0.0070002    -0.0991371    0.2059761 
   9.880000000     0.0576284    0.1716092     0.0073865   -0.0088709     0.0074665   -0.0086003    -0.1037214    0.2104616 
   9.900000000     0.1121256    0.1198107    -0.0076387   -0.0075386    -0.0074041   -0.0075306    -0.1087085    0.2527398 
   9.920000000     0.1310657    0.0373936    -0.0080038    0.0062665    -0.0081588    0.0061142    -0.0613733    0.2616651 
   9.940000000     0.1003991   -0.0002750     0.0048115    0.0093814     0.0046742    0.0096899    -0.0554462    0.2290861 
   9.960000000     0.0563938   -0.0459701     0.0103410   -0.0046141     0.0104802   -0.0045949    -0.0418031    0.2632145 
   9.980000000     0.0577774   -0.0881439    -0.0038051   -0.0104879    -0.0038068   -0.0105040    -0.0159610    0.2973355 
  10.000000000     0.0713692   -0.1053189    -0.0106142    0.0026413    -0.0108245    0.0024965     0.0181711    0.2509902 
