! 4/11/2025 3:24:46 PM
! C:\ANRITSUVNA\LELEC2350\LAB1_2025\GROUP1_0.S2P
! CHANNEL.1
! TR.MEASUREMENT
! CORRECTED.DATA
! RF.CORRECTION: FULL.TWO.PORT.CAL.PORT.1.2
! AVERAGING.OFF
! IF.BANDWIDTH: 300HZ
! SWEEPTYPE:  FREQ.SWEEP(Linear)
! Reference Plane Port Info
! PORT:              PORT1              PORT2             
! DISTANCE:          0  m               0  m              
! TIME:              0  s               0  s              
! PHASE.OFFSET:      0 °                0 °               
! LOSS:              0  dB              0  dB             
! REF.LOSS:          0  dB              0  dB             
! REF.FREQ:          0  Hz              0  Hz             
! Power Info
! POWER:             5  dBm             5  dBm            
! EFF.POWER:         5  dBm             5  dBm            
# GHZ S RI R 50.0
! FREQ.GHZ         S11RE         S11IM         S21RE         S21IM         S12RE         S12IM         S22RE         S22IM         
!; PortSelection: Port_12
   7.000000000    -0.0778221   -0.0282956    -0.0117863    0.0130394    -0.0118458    0.0130348    -0.0506520   -0.1138751 
   7.020000000    -0.0921575    0.0414371     0.0128074    0.0123900     0.0127647    0.0127187    -0.0466347   -0.1196263 
   7.040000000    -0.0255889    0.0759616     0.0127105   -0.0128518     0.0128348   -0.0125023    -0.0649388   -0.0994162 
   7.060000000    -0.0277198    0.0374724    -0.0125326   -0.0131772    -0.0125182   -0.0130184    -0.0447514   -0.0944702 
   7.080000000    -0.0084428    0.0618495    -0.0128316    0.0125568    -0.0128140    0.0128830    -0.0557971   -0.1088869 
   7.100000000     0.0670134    0.0710776     0.0113190    0.0123035     0.0112811    0.0125421    -0.0795657   -0.1131167 
   7.120000000     0.0868016    0.0474619     0.0129788   -0.0102070     0.0133662   -0.0105047    -0.0778975   -0.0728961 
   7.140000000     0.0956995    0.0050329    -0.0094821   -0.0132118    -0.0096436   -0.0134089    -0.0721996   -0.0827897 
   7.160000000     0.0835246   -0.0811104    -0.0137619    0.0085693    -0.0140172    0.0085679    -0.0790763   -0.0969207 
   7.180000000     0.0024134   -0.1158006     0.0080882    0.0136224     0.0074744    0.0140536    -0.0886481   -0.0941199 
   7.200000000    -0.0418099   -0.0906525     0.0140759   -0.0065508     0.0142582   -0.0063425    -0.1037606   -0.0844160 
   7.220000000    -0.0427610   -0.0806371    -0.0053410   -0.0145215    -0.0056879   -0.0144085    -0.1213322   -0.0806096 
   7.240000000    -0.0500118   -0.0488667    -0.0152861    0.0044529    -0.0150967    0.0045993    -0.1166441   -0.0644358 
   7.260000000    -0.0801744   -0.0162266     0.0039151    0.0158108     0.0039612    0.0157651    -0.1013444   -0.0606036 
   7.280000000    -0.1164891    0.0287795     0.0161332   -0.0031319     0.0165737   -0.0031773    -0.1269900   -0.0734840 
   7.300000000    -0.0752758    0.0657035    -0.0033166   -0.0159853    -0.0035289   -0.0163914    -0.1598289   -0.0383063 
   7.320000000    -0.0165530    0.0625711    -0.0151744    0.0027492    -0.0152181    0.0027626    -0.1300894   -0.0163417 
   7.340000000     0.0131440    0.0686028     0.0015632    0.0146616     0.0014346    0.0147082    -0.1092315   -0.0324331 
   7.360000000     0.0318169    0.0185246     0.0141171   -0.0005310     0.0142211   -0.0003506    -0.1453817   -0.0418915 
   7.380000000     0.0139589   -0.0029165     0.0006140   -0.0141972     0.0005128   -0.0142644    -0.1605415   -0.0275368 
   7.400000000     0.0466234    0.0364963    -0.0133815   -0.0013974    -0.0135856   -0.0012926    -0.1382313    0.0051650 
   7.420000000     0.0578645   -0.0116981    -0.0029915    0.0127273    -0.0030434    0.0129411    -0.1490888   -0.0000939 
   7.440000000     0.0165420   -0.0402673     0.0123557    0.0043793     0.0125074    0.0044974    -0.1519085    0.0038199 
   7.460000000     0.0167869   -0.0351825     0.0063589   -0.0129188     0.0061696   -0.0128682    -0.1581622    0.0151341 
   7.480000000    -0.0145328   -0.0481535    -0.0133676   -0.0067041    -0.0134021   -0.0065631    -0.1705256    0.0176628 
   7.500000000    -0.0288789   -0.0418248    -0.0066890    0.0129313    -0.0068584    0.0128925    -0.1592672    0.0543006 
   7.520000000    -0.0007405   -0.0678630     0.0123111    0.0075055     0.0123628    0.0074061    -0.1351586    0.0524441 
   7.540000000    -0.0315356   -0.0694498     0.0082202   -0.0116671     0.0082515   -0.0119072    -0.1460497    0.0548679 
   7.560000000    -0.0781322   -0.0302592    -0.0112837   -0.0087312    -0.0114065   -0.0087643    -0.1657816    0.0437552 
   7.580000000    -0.1258157    0.0117048    -0.0088509    0.0107235    -0.0092389    0.0105857    -0.1446770    0.1010944 
   7.600000000    -0.0950096    0.0723028     0.0094641    0.0094149     0.0097689    0.0094811    -0.1295786    0.0789160 
   7.620000000    -0.0454809    0.0846883     0.0094738   -0.0084020     0.0094619   -0.0085319    -0.1415328    0.0927695 
   7.640000000    -0.0195208    0.1128873    -0.0065920   -0.0106016    -0.0066596   -0.0107319    -0.1380462    0.0801280 
   7.660000000     0.0839627    0.0748731    -0.0117449    0.0057662    -0.0120125    0.0058225    -0.1422410    0.1074529 
   7.680000000     0.0792719    0.0124428     0.0044291    0.0128420     0.0045235    0.0129033    -0.1349882    0.1290206 
   7.700000000     0.0728534    0.0207404     0.0143806   -0.0042258     0.0142647   -0.0042498    -0.1229672    0.1372948 
   7.720000000     0.0590656   -0.0737116    -0.0037551   -0.0151529    -0.0035947   -0.0150724    -0.1135470    0.1141208 
   7.740000000     0.0066000   -0.0872798    -0.0160386    0.0030794    -0.0161960    0.0031476    -0.1289452    0.1420497 
   7.760000000     0.0153600   -0.0619626     0.0032880    0.0161175     0.0034627    0.0164125    -0.1183011    0.1732819 
   7.780000000    -0.0353075   -0.0888412     0.0164448   -0.0028689     0.0164689   -0.0032706    -0.0904338    0.1526009 
   7.800000000    -0.0957994   -0.0640432    -0.0024673   -0.0160912    -0.0026942   -0.0162849    -0.0689522    0.1543642 
   7.820000000    -0.0902085   -0.0132012    -0.0157343    0.0016803    -0.0160016    0.0017054    -0.0928200    0.1646843 
   7.840000000    -0.0873111    0.0306215     0.0016172    0.0153767     0.0015972    0.0155157    -0.0850994    0.1808755 
   7.860000000    -0.0525009    0.0680502     0.0142609   -0.0004635     0.0143179   -0.0003237    -0.0688157    0.1939153 
   7.880000000    -0.0167038    0.0370868     0.0008946   -0.0137110     0.0010205   -0.0139305    -0.0505028    0.1688020 
   7.900000000    -0.0134613    0.0420778    -0.0129327   -0.0027714    -0.0132662   -0.0028795    -0.0459903    0.1895429 
   7.920000000    -0.0002235    0.0563222    -0.0047288    0.0139757    -0.0045683    0.0139931    -0.0482215    0.2004105 
   7.940000000     0.0198592    0.0301254     0.0138573    0.0054454     0.0140149    0.0054281    -0.0347073    0.1923273 
   7.960000000     0.0793207    0.0042601     0.0066452   -0.0141811     0.0068234   -0.0143990     0.0010271    0.2101550 
   7.980000000     0.0815983   -0.0441447    -0.0140003   -0.0072168    -0.0143516   -0.0074396     0.0163907    0.2173809 
   8.000000000    -0.0181995   -0.0503947    -0.0087029    0.0139987    -0.0084214    0.0142755     0.0084836    0.1773597 
   8.020000000    -0.0286348   -0.0309960     0.0143697    0.0087415     0.0147639    0.0085270     0.0286757    0.2024085 
   8.040000000    -0.0178460   -0.0684492     0.0087803   -0.0144297     0.0086813   -0.0144279     0.0423071    0.1978138 
   8.060000000    -0.0452106   -0.0436322    -0.0136902   -0.0085264    -0.0139584   -0.0082955     0.0557294    0.1958696 
   8.080000000    -0.0466991   -0.0524139    -0.0083948    0.0121285    -0.0081455    0.0123934     0.0601598    0.1766275 
   8.100000000    -0.1002144   -0.0378208     0.0111701    0.0091925     0.0113131    0.0091244     0.0427383    0.1735941 
   8.120000000    -0.1052042    0.0795733     0.0095886   -0.0098442     0.0098067   -0.0098938     0.0697089    0.1910747 
   8.140000000    -0.0362823    0.1135760    -0.0089954   -0.0109881    -0.0090364   -0.0110731     0.0774923    0.1937521 
   8.160000000    -0.0132036    0.0624372    -0.0109219    0.0079439    -0.0108330    0.0079658     0.1005711    0.1736512 
   8.180000000     0.0187447    0.0554074     0.0066671    0.0120848     0.0065417    0.0118487     0.0975021    0.1525232 
   8.200000000     0.0607153    0.0376477     0.0128719   -0.0058689     0.0128371   -0.0057578     0.1055408    0.1749528 
   8.220000000     0.0502299    0.0287273    -0.0047538   -0.0137506    -0.0048999   -0.0139174     0.1265964    0.1736242 
   8.240000000     0.0854354   -0.0132856    -0.0142796    0.0045166    -0.0142559    0.0048836     0.1579333    0.1397263 
   8.260000000     0.1025527   -0.0890578     0.0039441    0.0145568     0.0040665    0.0146859     0.1291753    0.1256863 
   8.280000000     0.0290606   -0.1053994     0.0146643   -0.0033792     0.0148419   -0.0033679     0.1253758    0.1400336 
   8.300000000    -0.0503903   -0.1005999    -0.0024713   -0.0142889    -0.0026399   -0.0143823     0.1644100    0.1216936 
   8.320000000    -0.0819481   -0.0774003    -0.0142300    0.0018257    -0.0142234    0.0018323     0.1361780    0.1185479 
   8.340000000    -0.0759496   -0.0489998     0.0009442    0.0135226     0.0009878    0.0136460     0.1427933    0.1094613 
   8.360000000    -0.1248333   -0.0524534     0.0132824    0.0005831     0.0135035    0.0004857     0.1665551    0.1010308 
   8.380000000    -0.1155690    0.0051306     0.0014297   -0.0128732     0.0012063   -0.0128692     0.1656081    0.0900738 
   8.400000000    -0.0731152    0.0220550    -0.0124963   -0.0032976    -0.0125245   -0.0031192     0.1472549    0.0969665 
   8.420000000    -0.0773224    0.1092609    -0.0043888    0.0122987    -0.0043793    0.0122609     0.1937666    0.0939735 
   8.440000000    -0.0103754    0.1256886     0.0119279    0.0060984     0.0119362    0.0062634     0.1867673    0.0594711 
   8.460000000    -0.0243863    0.0549817     0.0077321   -0.0127055     0.0075079   -0.0126757     0.1731381    0.0378081 
   8.480000000     0.0219169    0.0649545    -0.0125351   -0.0083860    -0.0124907   -0.0083346     0.1668236    0.0683478 
   8.500000000     0.0607831    0.0237190    -0.0088186    0.0127601    -0.0088560    0.0127329     0.1949541    0.0346383 
   8.520000000     0.0347339    0.0098033     0.0120489    0.0094112     0.0121595    0.0093033     0.1948631   -0.0066061 
   8.540000000     0.0685224   -0.0266617     0.0104438   -0.0118617     0.0103251   -0.0119011     0.1789953    0.0213097 
   8.560000000     0.0333310   -0.0330003    -0.0113516   -0.0104589    -0.0114927   -0.0104841     0.1642571    0.0083754 
   8.580000000     0.0141562   -0.0148736    -0.0108069    0.0109729    -0.0108659    0.0110699     0.1662610   -0.0182862 
   8.600000000    -0.0206876   -0.0692726     0.0099194    0.0108582     0.0100080    0.0108735     0.1807610    0.0124016 
   8.620000000    -0.0499536   -0.0322379     0.0114442   -0.0082057     0.0113624   -0.0081590     0.1803793   -0.0016741 
   8.640000000    -0.0396594   -0.0095475    -0.0076149   -0.0120918    -0.0075056   -0.0121031     0.1784714   -0.0423051 
   8.660000000    -0.0878251   -0.0094259    -0.0128054    0.0058680    -0.0127931    0.0058281     0.1556305   -0.0361339 
   8.680000000    -0.0483746    0.0295004     0.0048985    0.0137809     0.0048298    0.0138399     0.1917706   -0.0316992 
   8.700000000     0.0256092    0.0066250     0.0145627   -0.0039612     0.0147044   -0.0039223     0.1830431   -0.0623542 
   8.720000000    -0.0237740    0.0203974    -0.0033384   -0.0159347    -0.0033403   -0.0159121     0.1450714   -0.0955036 
   8.740000000    -0.0251998    0.0836076    -0.0160503    0.0032072    -0.0162315    0.0031775     0.1361405   -0.0792300 
   8.760000000     0.0210013    0.0205319     0.0025905    0.0163327     0.0026870    0.0165017     0.1719357   -0.0807977 
   8.780000000     0.0090296    0.0195505     0.0161554   -0.0020329     0.0162662   -0.0021177     0.1157622   -0.1006308 
   8.800000000     0.0287811    0.0004429    -0.0012256   -0.0163682    -0.0013933   -0.0164326     0.1058152   -0.1058552 
   8.820000000     0.0042634   -0.0788875    -0.0157383    0.0013743    -0.0158571    0.0014996     0.1450387   -0.0955176 
   8.840000000    -0.0155696   -0.0321980     0.0004370    0.0148197     0.0004996    0.0149224     0.1064947   -0.1128935 
   8.860000000     0.0053737    0.0228968     0.0139063    0.0007489     0.0139184    0.0007230     0.1052621   -0.1211581 
   8.880000000    -0.0262983   -0.0339500     0.0025599   -0.0132295     0.0024669   -0.0131920     0.1261163   -0.1147668 
   8.900000000    -0.0657166   -0.0556569    -0.0133444   -0.0039962    -0.0133849   -0.0039327     0.1171306   -0.1502939 
   8.920000000    -0.0675525   -0.0269998    -0.0049944    0.0129753    -0.0050384    0.0129359     0.0687778   -0.1346147 
   8.940000000    -0.0977784    0.0298203     0.0123227    0.0061781     0.0122675    0.0061612     0.0805152   -0.1437781 
   8.960000000    -0.0689915    0.0695196     0.0072892   -0.0120659     0.0073871   -0.0119225     0.0729993   -0.1565935 
   8.980000000    -0.0271041    0.0517422    -0.0118199   -0.0089057    -0.0117921   -0.0090254     0.0687630   -0.1822515 
   9.000000000    -0.0115786    0.0527888    -0.0093632    0.0118272    -0.0094971    0.0117915     0.0130220   -0.1541069 
   9.020000000    -0.0250531    0.0545926     0.0116134    0.0096102     0.0116008    0.0097737     0.0358465   -0.1524027 
   9.040000000    -0.0153351    0.0800599     0.0098106   -0.0108356     0.0100390   -0.0109003     0.0276754   -0.1767363 
   9.060000000     0.0666080    0.0790183    -0.0094289   -0.0105530    -0.0095077   -0.0106950     0.0143279   -0.1308283 
   9.080000000     0.0738836    0.0295365    -0.0112715    0.0087268    -0.0114690    0.0088250    -0.0031162   -0.1958321 
   9.100000000     0.0307400   -0.0066842     0.0080313    0.0117432     0.0080903    0.0119351    -0.0047689   -0.1557482 
   9.120000000     0.0516254   -0.0424514     0.0119805   -0.0069659     0.0121703   -0.0071212    -0.0102641   -0.1436001 
   9.140000000     0.0402072   -0.0434704    -0.0057678   -0.0123197    -0.0059214   -0.0124197    -0.0222094   -0.1721464 
   9.160000000     0.0287114   -0.0006026    -0.0128116    0.0045374    -0.0129849    0.0046152    -0.0357807   -0.1972773 
   9.180000000     0.0084454   -0.0858803     0.0034613    0.0134873     0.0035877    0.0136084    -0.0806867   -0.1698502 
   9.200000000    -0.0551908   -0.1116123     0.0138129   -0.0026414     0.0138847   -0.0027811    -0.0746279   -0.1547192 
   9.220000000    -0.0858351   -0.0533201    -0.0016052   -0.0141329    -0.0017099   -0.0141855    -0.0883505   -0.1679098 
   9.240000000    -0.0961525   -0.0297214    -0.0144998    0.0005024    -0.0145672    0.0006043    -0.0944342   -0.1643487 
   9.260000000    -0.0881511   -0.0009947    -0.0000189    0.0148209     0.0000517    0.0148627    -0.0950910   -0.1271522 
   9.280000000    -0.0663702    0.0301981     0.0145821    0.0007256     0.0146082    0.0006005    -0.1249166   -0.1357431 
   9.300000000    -0.0880819    0.0745626     0.0014565   -0.0141936     0.0014018   -0.0142477    -0.1487935   -0.1314531 
   9.320000000    -0.0789505    0.0808714    -0.0136708   -0.0027095    -0.0136318   -0.0026761    -0.1178061   -0.0974550 
   9.340000000    -0.0626024    0.0609256    -0.0035211    0.0137254    -0.0034501    0.0137820    -0.1278728   -0.1237263 
   9.360000000     0.0260450    0.0992986     0.0132277    0.0042040     0.0133108    0.0041498    -0.1765600   -0.1238902 
   9.380000000     0.0390076    0.0505204     0.0048958   -0.0122055     0.0048665   -0.0123399    -0.1654668   -0.1005046 
   9.400000000    -0.0102418    0.0516945    -0.0112145   -0.0063115    -0.0112511   -0.0062680    -0.1497688   -0.0824846 
   9.420000000     0.0609384    0.0340282    -0.0078068    0.0106526    -0.0077324    0.0106555    -0.1933646   -0.0838826 
   9.440000000     0.0303666    0.0059852     0.0101546    0.0092701     0.0101931    0.0091852    -0.2097601   -0.0738085 
   9.460000000    -0.0186171    0.0418301     0.0102178   -0.0098621     0.0101328   -0.0099071    -0.1987795   -0.0278599 
   9.480000000     0.0182669    0.0052282    -0.0095743   -0.0112762    -0.0095649   -0.0111921    -0.1991733   -0.0387871 
   9.500000000    -0.0154529   -0.0066638    -0.0121579    0.0092569    -0.0120995    0.0092184    -0.2195744    0.0185855 
   9.520000000    -0.0138730    0.0347316     0.0089446    0.0129250     0.0089111    0.0127794    -0.1893250    0.0007945 
   9.540000000    -0.0137250    0.0002295     0.0130436   -0.0087012     0.0130212   -0.0086460    -0.2038109    0.0131340 
   9.560000000    -0.0089306    0.0014366    -0.0083281   -0.0132396    -0.0083374   -0.0132250    -0.2017862    0.0214156 
   9.580000000     0.0346171    0.0428805    -0.0128219    0.0072835    -0.0127233    0.0073032    -0.2033389    0.0599631 
   9.600000000     0.0247977    0.0717458     0.0063536    0.0129238     0.0063667    0.0128449    -0.1571476    0.0313338 
   9.620000000     0.0149876    0.0005488     0.0127384   -0.0050030     0.0126952   -0.0048407    -0.2302597    0.0378395 
   9.640000000    -0.0048488   -0.0539736    -0.0032688   -0.0131735    -0.0031452   -0.0131535    -0.2234560    0.1047077 
   9.660000000    -0.0031487   -0.0241614    -0.0134321    0.0019976    -0.0134709    0.0019812    -0.1975819    0.1086674 
   9.680000000    -0.0069805   -0.0458559     0.0007790    0.0141945     0.0007530    0.0142341    -0.1762271    0.0888675 
   9.700000000    -0.0276988   -0.0686772     0.0144775   -0.0000042     0.0144921    0.0001408    -0.2347488    0.1326126 
   9.720000000    -0.0159380   -0.0376313     0.0006531   -0.0146030     0.0007422   -0.0145970    -0.1680884    0.1596042 
   9.740000000    -0.1088071   -0.0288586    -0.0149532   -0.0013366    -0.0149772   -0.0013351    -0.1636278    0.1548336 
   9.760000000    -0.1808493    0.0173692    -0.0019871    0.0148559    -0.0020002    0.0148222    -0.1638923    0.1667995 
   9.780000000    -0.1199330    0.0612823     0.0147874    0.0022038     0.0148042    0.0021619    -0.1499376    0.1807195 
   9.800000000    -0.0752212    0.0814107     0.0019099   -0.0140680     0.0020342   -0.0141540    -0.1142082    0.1813023 
   9.820000000    -0.0997162    0.1242968    -0.0130072   -0.0027570    -0.0130750   -0.0028103    -0.1399918    0.1687318 
   9.840000000    -0.0576879    0.1255739    -0.0032633    0.0113528    -0.0033360    0.0112965    -0.1538134    0.2371680 
   9.860000000     0.0054071    0.1265497     0.0101400    0.0046807     0.0101277    0.0047571    -0.0910243    0.2019613 
   9.880000000     0.0750755    0.1719957     0.0058583   -0.0094694     0.0059844   -0.0093515    -0.1044092    0.2012090 
   9.900000000     0.1162900    0.1350828    -0.0082633   -0.0070906    -0.0080772   -0.0070340    -0.1159330    0.2525854 
   9.920000000     0.1184948    0.0283298    -0.0081173    0.0074662    -0.0081953    0.0073699    -0.0630662    0.2730366 
   9.940000000     0.1037753   -0.0157543     0.0065505    0.0097713     0.0066180    0.0100504    -0.0457991    0.2321427 
   9.960000000     0.0662781   -0.0327652     0.0108013   -0.0065923     0.0109761   -0.0065930    -0.0359316    0.2551858 
   9.980000000     0.0480838   -0.0770077    -0.0061923   -0.0114072    -0.0060826   -0.0113989    -0.0213475    0.2964731 
  10.000000000     0.0628296   -0.1236689    -0.0116596    0.0057238    -0.0118856    0.0055931     0.0159288    0.2546946 
