! 4/11/2025 3:35:01 PM
! C:\ANRITSUVNA\LELEC2350\LAB1_2025\GROUP1_55.S2P
! CHANNEL.1
! TR.MEASUREMENT
! CORRECTED.DATA
! RF.CORRECTION: FULL.TWO.PORT.CAL.PORT.1.2
! AVERAGING.OFF
! IF.BANDWIDTH: 300HZ
! SWEEPTYPE:  FREQ.SWEEP(Linear)
! Reference Plane Port Info
! PORT:              PORT1              PORT2             
! DISTANCE:          0  m               0  m              
! TIME:              0  s               0  s              
! PHASE.OFFSET:      0 °                0 °               
! LOSS:              0  dB              0  dB             
! REF.LOSS:          0  dB              0  dB             
! REF.FREQ:          0  Hz              0  Hz             
! Power Info
! POWER:             5  dBm             5  dBm            
! EFF.POWER:         5  dBm             5  dBm            
# GHZ S RI R 50.0
! FREQ.GHZ         S11RE         S11IM         S21RE         S21IM         S12RE         S12IM         S22RE         S22IM         
!; PortSelection: Port_12
   7.000000000    -0.0704932   -0.0328745    -0.0082789    0.0076943    -0.0083783    0.0077260    -0.0539855   -0.0967632 
   7.020000000    -0.0856574    0.0462469     0.0062911    0.0101375     0.0063084    0.0103496    -0.0273823   -0.1122469 
   7.040000000    -0.0354473    0.0769852     0.0113219   -0.0070840     0.0113333   -0.0068513    -0.0566144   -0.1176354 
   7.060000000    -0.0308743    0.0308172    -0.0073894   -0.0107796    -0.0074508   -0.0106511    -0.0582734   -0.1046495 
   7.080000000     0.0046718    0.0626647    -0.0100735    0.0061370    -0.0100240    0.0063460    -0.0685047   -0.0992860 
   7.100000000     0.0690477    0.0768072     0.0043737    0.0107029     0.0043375    0.0108761    -0.0708235   -0.0964093 
   7.120000000     0.0757934    0.0420263     0.0125459   -0.0040948     0.0128998   -0.0042248    -0.0609349   -0.0822004 
   7.140000000     0.0940573   -0.0013858    -0.0049446   -0.0128850    -0.0051095   -0.0130470    -0.0777011   -0.0992222 
   7.160000000     0.0914263   -0.0724600    -0.0119916    0.0049054    -0.0121091    0.0048713    -0.0946679   -0.0956251 
   7.180000000     0.0024927   -0.1106480     0.0037646    0.0114865     0.0032566    0.0117084    -0.0927228   -0.0771321 
   7.200000000    -0.0472116   -0.1047696     0.0123708   -0.0025427     0.0124922   -0.0023635    -0.0863466   -0.0782800 
   7.220000000    -0.0410632   -0.0835731    -0.0025724   -0.0126675    -0.0029160   -0.0126563    -0.1134335   -0.0965233 
   7.240000000    -0.0471891   -0.0341242    -0.0120067    0.0028447    -0.0119057    0.0030464    -0.1286083   -0.0726669 
   7.260000000    -0.0848229   -0.0144955     0.0015671    0.0106295     0.0016621    0.0106562    -0.1137950   -0.0510213 
   7.280000000    -0.1180465    0.0175040     0.0106835    0.0005776     0.0109070    0.0005907    -0.1165571   -0.0580375 
   7.300000000    -0.0704641    0.0683491     0.0011572   -0.0115208     0.0010492   -0.0118125    -0.1436972   -0.0476130 
   7.320000000    -0.0177555    0.0726425    -0.0112653   -0.0011005    -0.0112693   -0.0010099    -0.1338929   -0.0313616 
   7.340000000     0.0061429    0.0649624    -0.0020252    0.0100964    -0.0020352    0.0100672    -0.1245419   -0.0336793 
   7.360000000     0.0389673    0.0141492     0.0100698    0.0039094     0.0100152    0.0040040    -0.1498976   -0.0258053 
   7.380000000     0.0239491    0.0039203     0.0050201   -0.0111772     0.0049301   -0.0111598    -0.1438339   -0.0226471 
   7.400000000     0.0417772    0.0413781    -0.0114609   -0.0046113    -0.0116240   -0.0045872    -0.1329716   -0.0087423 
   7.420000000     0.0537298   -0.0184028    -0.0044891    0.0107263    -0.0046477    0.0108327    -0.1599758   -0.0087534 
   7.440000000     0.0238860   -0.0414633     0.0098893    0.0052257     0.0099058    0.0054040    -0.1656875    0.0133037 
   7.460000000     0.0180852   -0.0253748     0.0062761   -0.0097272     0.0062151   -0.0096417    -0.1484420    0.0302405 
   7.480000000    -0.0195457   -0.0493319    -0.0097302   -0.0063223    -0.0096774   -0.0063220    -0.1545743    0.0113761 
   7.500000000    -0.0255348   -0.0537261    -0.0058669    0.0087954    -0.0060683    0.0087584    -0.1621383    0.0397325 
   7.520000000     0.0065029   -0.0661056     0.0070264    0.0065553     0.0070752    0.0065105    -0.1499310    0.0509696 
   7.540000000    -0.0348012   -0.0597023     0.0079206   -0.0060248     0.0079610   -0.0061384    -0.1494147    0.0710700 
   7.560000000    -0.0818286   -0.0339966    -0.0058693   -0.0089573    -0.0059506   -0.0090771    -0.1474252    0.0481602 
   7.580000000    -0.1186812    0.0031307    -0.0091320    0.0055693    -0.0093384    0.0054003    -0.1405316    0.0860314 
   7.600000000    -0.0922822    0.0794530     0.0043361    0.0095985     0.0045846    0.0097268    -0.1405843    0.0701301 
   7.620000000    -0.0517996    0.0897796     0.0104430   -0.0037505     0.0104800   -0.0037877    -0.1548744    0.1021928 
   7.640000000    -0.0207991    0.1034220    -0.0031400   -0.0114314    -0.0030962   -0.0115604    -0.1295584    0.0937737 
   7.660000000     0.0925119    0.0719585    -0.0117286    0.0033173    -0.0121035    0.0032846    -0.1304248    0.1016418 
   7.680000000     0.0788636    0.0197443     0.0025186    0.0116307     0.0025617    0.0117936    -0.1372581    0.1166055 
   7.700000000     0.0653875    0.0207535     0.0123302   -0.0017672     0.0122792   -0.0018033    -0.1368594    0.1364137 
   7.720000000     0.0661840   -0.0809933    -0.0015226   -0.0126125    -0.0013481   -0.0126185    -0.1161204    0.1302437 
   7.740000000     0.0163673   -0.0880282    -0.0126890    0.0008102    -0.0129005    0.0008585    -0.1145747    0.1455232 
   7.760000000     0.0046804   -0.0548752     0.0005092    0.0118956     0.0006528    0.0121663    -0.1120805    0.1613632 
   7.780000000    -0.0403769   -0.0893625     0.0116544    0.0010445     0.0118372    0.0006843    -0.0999921    0.1427765 
   7.800000000    -0.0843612   -0.0712262     0.0023675   -0.0120538     0.0021705   -0.0123078    -0.0823105    0.1635260 
   7.820000000    -0.0854198   -0.0123784    -0.0126051   -0.0031424    -0.0128709   -0.0030599    -0.0844295    0.1766484 
   7.840000000    -0.0978808    0.0316908    -0.0030568    0.0128371    -0.0029633    0.0129840    -0.0746022    0.1752529 
   7.860000000    -0.0534760    0.0632536     0.0122061    0.0036419     0.0121622    0.0035717    -0.0699468    0.1813219 
   7.880000000    -0.0056380    0.0373611     0.0048785   -0.0122641     0.0049116   -0.0123621    -0.0667790    0.1695974 
   7.900000000    -0.0126765    0.0494263    -0.0125786   -0.0053143    -0.0127276   -0.0052939    -0.0469771    0.2039900 
   7.920000000    -0.0085975    0.0529398    -0.0055506    0.0132218    -0.0053880    0.0131100    -0.0368797    0.2028508 
   7.940000000     0.0227050    0.0197732     0.0121218    0.0049188     0.0121647    0.0049647    -0.0276438    0.1835887 
   7.960000000     0.0853808    0.0083244     0.0057915   -0.0110582     0.0059723   -0.0111247    -0.0091069    0.2013767 
   7.980000000     0.0750502   -0.0357441    -0.0103366   -0.0062904    -0.0105074   -0.0064760     0.0069081    0.2267864 
   8.000000000    -0.0232860   -0.0578211    -0.0076042    0.0095629    -0.0075396    0.0096812     0.0155360    0.1890589 
   8.020000000    -0.0200434   -0.0387969     0.0090779    0.0076634     0.0093001    0.0075858     0.0406158    0.1976248 
   8.040000000    -0.0146928   -0.0619881     0.0085642   -0.0079065     0.0085671   -0.0079296     0.0395140    0.1855448 
   8.060000000    -0.0587033   -0.0400610    -0.0074364   -0.0099830    -0.0076958   -0.0098872     0.0415729    0.1968385 
   8.080000000    -0.0490654   -0.0552579    -0.0107027    0.0074301    -0.0105826    0.0076802     0.0605309    0.1898442 
   8.100000000    -0.0871011   -0.0340136     0.0077717    0.0108782     0.0078612    0.0109496     0.0543547    0.1754917 
   8.120000000    -0.1066519    0.0841844     0.0106175   -0.0071820     0.0108952   -0.0071352     0.0730403    0.1821647 
   8.140000000    -0.0537069    0.1107649    -0.0061596   -0.0112952    -0.0061523   -0.0114404     0.0688355    0.1857872 
   8.160000000    -0.0094892    0.0596594    -0.0112445    0.0060944    -0.0113423    0.0061655     0.0922945    0.1842598 
   8.180000000     0.0340011    0.0646733     0.0054737    0.0110201     0.0053479    0.0108670     0.1041728    0.1597163 
   8.200000000     0.0580737    0.0423090     0.0105229   -0.0044151     0.0105314   -0.0044349     0.1131679    0.1728101 
   8.220000000     0.0436840    0.0181319    -0.0024745   -0.0104113    -0.0026622   -0.0105287     0.1252412    0.1631622 
   8.240000000     0.0926708   -0.0151708    -0.0112277    0.0015357    -0.0112443    0.0019097     0.1477530    0.1421801 
   8.260000000     0.1072869   -0.0741772     0.0007617    0.0113276     0.0008198    0.0114343     0.1276493    0.1345424 
   8.280000000     0.0216697   -0.1056532     0.0114951   -0.0000535     0.0116545   -0.0001004     0.1341523    0.1446512 
   8.300000000    -0.0496605   -0.1154991     0.0011906   -0.0112588     0.0011194   -0.0113199     0.1708951    0.1153429 
   8.320000000    -0.0720974   -0.0755857    -0.0118845   -0.0021944    -0.0118448   -0.0021605     0.1289179    0.1117730 
   8.340000000    -0.0784207   -0.0398462    -0.0024603    0.0121064    -0.0024750    0.0121621     0.1369174    0.1159686 
   8.360000000    -0.1323287   -0.0593884     0.0122074    0.0027048     0.0124200    0.0026988     0.1695500    0.1105915 
   8.380000000    -0.1092333   -0.0009451     0.0028374   -0.0116449     0.0026721   -0.0115976     0.1758753    0.0868053 
   8.400000000    -0.0646812    0.0338991    -0.0108150   -0.0037180    -0.0108186   -0.0036963     0.1461132    0.0884609 
   8.420000000    -0.0861792    0.1137789    -0.0042596    0.0105405    -0.0043778    0.0105474     0.1849028    0.0936173 
   8.440000000    -0.0164361    0.1136972     0.0094751    0.0047856     0.0095367    0.0049708     0.1830165    0.0687142 
   8.460000000    -0.0147449    0.0532135     0.0058465   -0.0086666     0.0057333   -0.0087122     0.1810914    0.0428473 
   8.480000000     0.0251100    0.0800453    -0.0074998   -0.0070528    -0.0074808   -0.0069085     0.1712205    0.0616504 
   8.500000000     0.0553597    0.0211760    -0.0086215    0.0074542    -0.0086181    0.0073740     0.1875635    0.0295246 
   8.520000000     0.0387352   -0.0037395     0.0072718    0.0090707     0.0072829    0.0090837     0.1883287   -0.0017971 
   8.540000000     0.0779051   -0.0208758     0.0099331   -0.0066776     0.0098580   -0.0067784     0.1796774    0.0307667 
   8.560000000     0.0276301   -0.0219695    -0.0059848   -0.0107043    -0.0061190   -0.0107026     0.1733503    0.0082666 
   8.580000000     0.0081756   -0.0239556    -0.0118123    0.0061920    -0.0118919    0.0061735     0.1655040   -0.0248535 
   8.600000000    -0.0126509   -0.0791523     0.0065848    0.0117684     0.0065979    0.0117803     0.1745565    0.0110669 
   8.620000000    -0.0486762   -0.0219319     0.0112176   -0.0058703     0.0111877   -0.0058371     0.1748502    0.0056669 
   8.640000000    -0.0479345   -0.0047603    -0.0046010   -0.0110771    -0.0045319   -0.0111045     0.1876305   -0.0366539 
   8.660000000    -0.0837878   -0.0267528    -0.0117212    0.0033657    -0.0117597    0.0033767     0.1623996   -0.0435422 
   8.680000000    -0.0403777    0.0261321     0.0028835    0.0122535     0.0028731    0.0122832     0.1855501   -0.0374444 
   8.700000000     0.0207085    0.0251886     0.0118498   -0.0024100     0.0119024   -0.0023362     0.1756436   -0.0603048 
   8.720000000    -0.0288452    0.0197939    -0.0007167   -0.0117533    -0.0007512   -0.0116867     0.1456031   -0.0851565 
   8.740000000    -0.0202619    0.0655576    -0.0125344   -0.0004073    -0.0126558   -0.0004254     0.1449732   -0.0794986 
   8.760000000     0.0225310    0.0245803    -0.0010070    0.0131446    -0.0009909    0.0132647     0.1693647   -0.0850676 
   8.780000000    -0.0026576    0.0302350     0.0131002    0.0009710     0.0131404    0.0009538     0.1123705   -0.1034740 
   8.800000000     0.0253049   -0.0068718     0.0021468   -0.0126580     0.0020993   -0.0127316     0.1009259   -0.0972832 
   8.820000000     0.0192069   -0.0863165    -0.0128394   -0.0029992    -0.0129520   -0.0029687     0.1528737   -0.0886936 
   8.840000000    -0.0141522   -0.0244392    -0.0034110    0.0133315    -0.0035214    0.0132834     0.1126038   -0.1188879 
   8.860000000    -0.0125922    0.0264103     0.0131392    0.0031039     0.0131591    0.0031224     0.1033771   -0.1272748 
   8.880000000    -0.0264967   -0.0413359     0.0036459   -0.0118950     0.0036595   -0.0119325     0.1179961   -0.1145788 
   8.900000000    -0.0515237   -0.0543022    -0.0111022   -0.0046029    -0.0111931   -0.0046305     0.1168595   -0.1415012 
   8.920000000    -0.0731624   -0.0162835    -0.0055033    0.0110711    -0.0055299    0.0110528     0.0759379   -0.1356138 
   8.940000000    -0.1073365    0.0261907     0.0104679    0.0056472     0.0104156    0.0056332     0.0825121   -0.1510055 
   8.960000000    -0.0628549    0.0575233     0.0057691   -0.0092866     0.0058507   -0.0092984     0.0640323   -0.1595750 
   8.980000000    -0.0215051    0.0593131    -0.0077110   -0.0069684    -0.0077565   -0.0070203     0.0622039   -0.1733676 
   9.000000000    -0.0207678    0.0635873    -0.0086431    0.0071847    -0.0086898    0.0071863     0.0215818   -0.1475728 
   9.020000000    -0.0261989    0.0477660     0.0072699    0.0093019     0.0072544    0.0092904     0.0414551   -0.1569760 
   9.040000000    -0.0022879    0.0725580     0.0094363   -0.0070013     0.0095479   -0.0069803     0.0245935   -0.1803295 
   9.060000000     0.0652825    0.0891325    -0.0056840   -0.0096183    -0.0057411   -0.0097315     0.0077889   -0.1317743 
   9.080000000     0.0581874    0.0334172    -0.0108826    0.0046432    -0.0108997    0.0046318     0.0005227   -0.1868608 
   9.100000000     0.0343549   -0.0151592     0.0047092    0.0116396     0.0046602    0.0117003     0.0018881   -0.1574296 
   9.120000000     0.0688360   -0.0409294     0.0116064   -0.0048444     0.0118302   -0.0048302    -0.0083899   -0.1506115 
   9.140000000     0.0354699   -0.0380494    -0.0040678   -0.0108072    -0.0041330   -0.0108798    -0.0290466   -0.1779615 
   9.160000000     0.0124075   -0.0082732    -0.0106954    0.0026771    -0.0108030    0.0027232    -0.0405774   -0.1907103 
   9.180000000     0.0182645   -0.0887445     0.0017398    0.0112086     0.0017469    0.0112962    -0.0761567   -0.1650339 
   9.200000000    -0.0384548   -0.0998846     0.0113522   -0.0015241     0.0114189   -0.0014499    -0.0697271   -0.1574097 
   9.220000000    -0.0959212   -0.0508151    -0.0007423   -0.0103846    -0.0007597   -0.0105284    -0.0893817   -0.1743895 
   9.240000000    -0.1058214   -0.0420230    -0.0097546   -0.0009677    -0.0098412   -0.0008781    -0.1023535   -0.1627140 
   9.260000000    -0.0762082    0.0006065    -0.0026709    0.0102719    -0.0026575    0.0102494    -0.0961793   -0.1189548 
   9.280000000    -0.0629426    0.0420940     0.0109323    0.0032189     0.0109881    0.0032313    -0.1180878   -0.1346107 
   9.300000000    -0.1039817    0.0708720     0.0035693   -0.0106932     0.0035005   -0.0107525    -0.1454611   -0.1359207 
   9.320000000    -0.0736291    0.0712672    -0.0101756   -0.0043596    -0.0102623   -0.0042338    -0.1234284   -0.1026413 
   9.340000000    -0.0449474    0.0673469    -0.0054740    0.0100312    -0.0054207    0.0100688    -0.1324947   -0.1174275 
   9.360000000     0.0184190    0.1123665     0.0104979    0.0058606     0.0104549    0.0059288    -0.1717038   -0.1173364 
   9.380000000     0.0270156    0.0424189     0.0056742   -0.0100751     0.0057142   -0.0102249    -0.1584615   -0.1030496 
   9.400000000    -0.0003952    0.0424442    -0.0087898   -0.0055744    -0.0088283   -0.0055264    -0.1489417   -0.0917227 
   9.420000000     0.0693998    0.0492483    -0.0066806    0.0072278    -0.0065810    0.0072426    -0.2030024   -0.0858328 
   9.440000000     0.0207469    0.0090352     0.0065197    0.0080464     0.0065384    0.0080358    -0.2119730   -0.0654380 
   9.460000000    -0.0237768    0.0200108     0.0090026   -0.0064208     0.0090257   -0.0064571    -0.1916201   -0.0269319 
   9.480000000     0.0301109    0.0052273    -0.0060609   -0.0089432    -0.0061120   -0.0089755    -0.1956716   -0.0444945 
   9.500000000    -0.0130206    0.0081047    -0.0094683    0.0046885    -0.0094570    0.0047376    -0.2277939    0.0108445 
   9.520000000    -0.0261409    0.0262779     0.0038717    0.0106269     0.0038670    0.0106017    -0.1964696    0.0104471 
   9.540000000    -0.0101284   -0.0146693     0.0117348   -0.0036116     0.0117639   -0.0036297    -0.1991381    0.0181971 
   9.560000000     0.0024731    0.0133629    -0.0040778   -0.0119660    -0.0042498   -0.0119901    -0.1937718    0.0183432 
   9.580000000     0.0252998    0.0516715    -0.0112894    0.0036998    -0.0111771    0.0037712    -0.2052563    0.0510535 
   9.600000000     0.0096024    0.0548901     0.0024893    0.0110747     0.0026303    0.0109261    -0.1666722    0.0334367 
   9.620000000     0.0259882   -0.0080309     0.0113643   -0.0013962     0.0113042   -0.0014140    -0.2294863    0.0434370 
   9.640000000     0.0034137   -0.0385051    -0.0011504   -0.0117625    -0.0010861   -0.0116350    -0.2159778    0.1069977 
   9.660000000    -0.0141595   -0.0232068    -0.0110013    0.0008549    -0.0108652    0.0009289    -0.1937965    0.1005581 
   9.680000000    -0.0063159   -0.0645948    -0.0006978    0.0101284    -0.0007390    0.0100763    -0.1861037    0.0819976 
   9.700000000    -0.0182978   -0.0651359     0.0104840    0.0019371     0.0104378    0.0019989    -0.2408299    0.1394091 
   9.720000000    -0.0255129   -0.0177003     0.0026176   -0.0108544     0.0026502   -0.0109338    -0.1648325    0.1665116 
   9.740000000    -0.1173306   -0.0378877    -0.0110412   -0.0026184    -0.0110676   -0.0025895    -0.1567792    0.1504211 
   9.760000000    -0.1703932   -0.0046266    -0.0030513    0.0098331    -0.0029757    0.0097934    -0.1675333    0.1568912 
   9.780000000    -0.1146028    0.0691922     0.0094634    0.0042319     0.0094401    0.0041945    -0.1632169    0.1825789 
   9.800000000    -0.0910337    0.0948703     0.0048887   -0.0093327     0.0049064   -0.0094444    -0.1128881    0.1910655 
   9.820000000    -0.1024034    0.1098942    -0.0095331   -0.0050507    -0.0095744   -0.0049488    -0.1339597    0.1707335 
   9.840000000    -0.0429680    0.1172714    -0.0047036    0.0082506    -0.0046794    0.0081514    -0.1506745    0.2281828 
   9.860000000     0.0043037    0.1436435     0.0069320    0.0055318     0.0067843    0.0055493    -0.0997980    0.1980342 
   9.880000000     0.0572383    0.1737823     0.0066275   -0.0062833     0.0065605   -0.0061113    -0.1094181    0.2101454 
   9.900000000     0.1163145    0.1203327    -0.0058239   -0.0070866    -0.0056719   -0.0070828    -0.1117539    0.2576169 
   9.920000000     0.1313055    0.0349754    -0.0070390    0.0053203    -0.0071388    0.0052477    -0.0557739    0.2669898 
   9.940000000     0.0965669   -0.0014382     0.0036580    0.0072109     0.0036517    0.0073936    -0.0512239    0.2229964 
   9.960000000     0.0559222   -0.0428826     0.0081820   -0.0028197     0.0082676   -0.0027866    -0.0465517    0.2604058 
   9.980000000     0.0619610   -0.0866507    -0.0019684   -0.0087082    -0.0019476   -0.0088022    -0.0197174    0.3010292 
  10.000000000     0.0710357   -0.1090650    -0.0091291    0.0013767    -0.0093546    0.0013825     0.0206250    0.2572918 
