! 4/11/2025 3:13:32 PM
! C:\ANRITSUVNA\LELEC2350\LAB1_2025\GROUP1_WITHGRID.S2P
! CHANNEL.1
! TR.MEASUREMENT
! CORRECTED.DATA
! RF.CORRECTION: FULL.TWO.PORT.CAL.PORT.1.2
! AVERAGING.OFF
! IF.BANDWIDTH: 300HZ
! SWEEPTYPE:  FREQ.SWEEP(Linear)
! Reference Plane Port Info
! PORT:              PORT1              PORT2             
! DISTANCE:          0  m               0  m              
! TIME:              0  s               0  s              
! PHASE.OFFSET:      0 °                0 °               
! LOSS:              0  dB              0  dB             
! REF.LOSS:          0  dB              0  dB             
! REF.FREQ:          0  Hz              0  Hz             
! Power Info
! POWER:             5  dBm             5  dBm            
! EFF.POWER:         5  dBm             5  dBm            
# GHZ S RI R 50.0
! FREQ.GHZ         S11RE         S11IM         S21RE         S21IM         S12RE         S12IM         S22RE         S22IM         
!; PortSelection: Port_12
   7.000000000    -0.0750784   -0.0407945    -0.0014320   -0.0001891    -0.0014134   -0.0002175    -0.0566240   -0.0856414 
   7.020000000    -0.1021247    0.0389779     0.0000172    0.0007974     0.0000392    0.0008071    -0.0134488   -0.1014294 
   7.040000000    -0.0348050    0.0836275     0.0004907    0.0003343     0.0004935    0.0003471    -0.0509255   -0.1371611 
   7.060000000    -0.0191671    0.0515527     0.0006705   -0.0006610     0.0006331   -0.0006299    -0.0776447   -0.1049224 
   7.080000000     0.0011158    0.0515257    -0.0007591   -0.0005061    -0.0008052   -0.0004777    -0.0665551   -0.0861663 
   7.100000000     0.0503133    0.0691323    -0.0003701    0.0005373    -0.0003538    0.0005369    -0.0597320   -0.0906017 
   7.120000000     0.0848702    0.0592194     0.0002699    0.0005277     0.0002513    0.0005765    -0.0526118   -0.1012522 
   7.140000000     0.1045670    0.0081538     0.0006963   -0.0002818     0.0007174   -0.0002883    -0.1002986   -0.1065039 
   7.160000000     0.0871218   -0.0896414    -0.0001984   -0.0007881    -0.0002142   -0.0008280    -0.0953713   -0.0767603 
   7.180000000    -0.0056135   -0.1148865    -0.0008909    0.0003485    -0.0009639    0.0003491    -0.0819439   -0.0722976 
   7.200000000    -0.0353708   -0.0784150     0.0004322    0.0007439     0.0003818    0.0007183    -0.0763929   -0.0908669 
   7.220000000    -0.0357355   -0.0813362     0.0005342   -0.0001306     0.0005096   -0.0001728    -0.1305361   -0.1100972 
   7.240000000    -0.0497830   -0.0565992     0.0002399   -0.0007137     0.0001917   -0.0007133    -0.1377820   -0.0511240 
   7.260000000    -0.0907192   -0.0204120    -0.0010915   -0.0002136    -0.0010889   -0.0002093    -0.0949348   -0.0455650 
   7.280000000    -0.1166899    0.0407883     0.0001325    0.0011339     0.0001137    0.0011933    -0.1076178   -0.0723416 
   7.300000000    -0.0623542    0.0653139     0.0007080   -0.0002071     0.0007496   -0.0002135    -0.1571612   -0.0671475 
   7.320000000    -0.0145158    0.0532628     0.0003220   -0.0003867     0.0003322   -0.0004169    -0.1525484   -0.0117573 
   7.340000000     0.0030013    0.0609663    -0.0007953   -0.0006968    -0.0007733   -0.0007224    -0.1069341   -0.0194366 
   7.360000000     0.0240069    0.0316429    -0.0005839    0.0011570    -0.0006038    0.0011421    -0.1359381   -0.0428551 
   7.380000000     0.0298197    0.0082414     0.0011377    0.0002705     0.0011688    0.0002348    -0.1573932   -0.0388681 
   7.400000000     0.0540427    0.0228203     0.0002947   -0.0005767     0.0002845   -0.0005789    -0.1550502    0.0062150 
   7.420000000     0.0500013   -0.0183056    -0.0005665   -0.0009452    -0.0005324   -0.0009678    -0.1435993    0.0134493 
   7.440000000     0.0084464   -0.0327599    -0.0009706    0.0009925    -0.0009797    0.0010144    -0.1426377   -0.0021787 
   7.460000000     0.0199809   -0.0279524     0.0011002    0.0008496     0.0011040    0.0008235    -0.1613720    0.0079829 
   7.480000000    -0.0023138   -0.0518225     0.0006368   -0.0009082     0.0006190   -0.0008544    -0.1749447    0.0193605 
   7.500000000    -0.0263051   -0.0513436    -0.0006047   -0.0008601    -0.0005962   -0.0009052    -0.1550239    0.0633495 
   7.520000000    -0.0097409   -0.0686653    -0.0010768    0.0006565    -0.0010655    0.0007005    -0.1242205    0.0399239 
   7.540000000    -0.0338793   -0.0621105     0.0005487    0.0010108     0.0005965    0.0010341    -0.1634997    0.0430507 
   7.560000000    -0.0706713   -0.0280325     0.0013383   -0.0002392     0.0013745   -0.0002580    -0.1690978    0.0601471 
   7.580000000    -0.1232570    0.0022610    -0.0005506   -0.0017040    -0.0004803   -0.0017393    -0.1375582    0.1033965 
   7.600000000    -0.1044399    0.0664907    -0.0017084    0.0007136    -0.0017305    0.0007268    -0.1207224    0.0721008 
   7.620000000    -0.0492331    0.0906509     0.0006376    0.0015872     0.0006599    0.0016439    -0.1573529    0.0760023 
   7.640000000    -0.0105642    0.1163131     0.0017749   -0.0004466     0.0017784   -0.0004498    -0.1491371    0.0991597 
   7.660000000     0.0871612    0.0682067    -0.0004966   -0.0021934    -0.0004603   -0.0022439    -0.1306881    0.1164600 
   7.680000000     0.0707148    0.0076616    -0.0023379    0.0009979    -0.0023403    0.0010426    -0.1210278    0.1224141 
   7.700000000     0.0695093    0.0239313     0.0011593    0.0018327     0.0011915    0.0018432    -0.1312784    0.1122475 
   7.720000000     0.0637634   -0.0621350     0.0017359   -0.0009100     0.0017783   -0.0008511    -0.1348201    0.1283795 
   7.740000000     0.0180110   -0.0909696    -0.0006592   -0.0017671    -0.0006785   -0.0017784    -0.1203484    0.1592973 
   7.760000000     0.0049302   -0.0800715    -0.0021218    0.0005743    -0.0021579    0.0005907    -0.1001418    0.1679859 
   7.780000000    -0.0488889   -0.0785962     0.0009560    0.0021733     0.0010290    0.0021195    -0.0875445    0.1249949 
   7.800000000    -0.0905589   -0.0523541     0.0017647   -0.0007873     0.0017450   -0.0008444    -0.1062944    0.1525771 
   7.820000000    -0.0783779   -0.0210129    -0.0006023   -0.0018579    -0.0005685   -0.0018866    -0.0923356    0.2018042 
   7.840000000    -0.0896049    0.0148713    -0.0018846    0.0005655    -0.0018698    0.0005574    -0.0553839    0.1803693 
   7.860000000    -0.0693550    0.0735666     0.0004525    0.0020032     0.0004279    0.0019587    -0.0607301    0.1669365 
   7.880000000    -0.0205739    0.0492896     0.0019183   -0.0007624     0.0019576   -0.0007254    -0.0828521    0.1588372 
   7.900000000    -0.0049751    0.0458183    -0.0004417   -0.0016754    -0.0004189   -0.0016487    -0.0594101    0.2255335 
   7.920000000     0.0063727    0.0458901    -0.0019155    0.0003704    -0.0019137    0.0004020    -0.0155871    0.2070293 
   7.940000000     0.0070474    0.0258997     0.0003640    0.0016732     0.0003332    0.0017005    -0.0197914    0.1705069 
   7.960000000     0.0725474    0.0156389     0.0019638   -0.0001802     0.0019936   -0.0001486    -0.0266306    0.1887017 
   7.980000000     0.0867842   -0.0377155    -0.0005502   -0.0016524    -0.0005359   -0.0017221    -0.0067673    0.2443455 
   8.000000000    -0.0079297   -0.0549624    -0.0014709    0.0002340    -0.0014457    0.0002148     0.0341165    0.1983844 
   8.020000000    -0.0361598   -0.0389281     0.0000144    0.0013114     0.0000015    0.0013392     0.0431857    0.1844185 
   8.040000000    -0.0234467   -0.0604417     0.0014458    0.0004031     0.0014429    0.0003913     0.0270515    0.1756751 
   8.060000000    -0.0366762   -0.0409041     0.0001527   -0.0019387     0.0000810   -0.0020090     0.0279853    0.2111161 
   8.080000000    -0.0490395   -0.0524423    -0.0013592    0.0002638    -0.0013610    0.0002638     0.0728570    0.2031469 
   8.100000000    -0.1060776   -0.0353673    -0.0001302    0.0009914    -0.0001391    0.0010474     0.0674328    0.1636107 
   8.120000000    -0.1020499    0.0789729     0.0010419    0.0005769     0.0010548    0.0005851     0.0576072    0.1681872 
   8.140000000    -0.0325843    0.1129570     0.0007884   -0.0014020     0.0007752   -0.0014439     0.0573496    0.1998556 
   8.160000000    -0.0141636    0.0623678    -0.0016016   -0.0001394    -0.0016339   -0.0001259     0.1061769    0.2005361 
   8.180000000     0.0169875    0.0555540    -0.0001384    0.0007366    -0.0001597    0.0007120     0.1177235    0.1439028 
   8.200000000     0.0590020    0.0488208     0.0007135    0.0006566     0.0006751    0.0006722     0.0985450    0.1571446 
   8.220000000     0.0629435    0.0360006     0.0009024   -0.0007875     0.0008736   -0.0007492     0.1115015    0.1790021 
   8.240000000     0.0924845   -0.0236991    -0.0010184   -0.0010313    -0.0010784   -0.0009847     0.1557990    0.1574126 
   8.260000000     0.0928139   -0.0932625    -0.0005636    0.0009897    -0.0005475    0.0009865     0.1415731    0.1219239 
   8.280000000     0.0253842   -0.0955173     0.0005571    0.0006933     0.0005530    0.0007048     0.1247039    0.1288963 
   8.300000000    -0.0380685   -0.0944213     0.0009324   -0.0004673     0.0009258   -0.0004951     0.1488762    0.1344966 
   8.320000000    -0.0710788   -0.0869539    -0.0005598   -0.0010773    -0.0005657   -0.0010546     0.1445571    0.1260988 
   8.340000000    -0.0784099   -0.0616404    -0.0009402    0.0007478    -0.0009562    0.0006832     0.1562598    0.1068552 
   8.360000000    -0.1286518   -0.0490813     0.0005157    0.0005890     0.0004892    0.0006096     0.1602802    0.0915410 
   8.380000000    -0.1165936    0.0120769     0.0008445   -0.0000967     0.0008337   -0.0001567     0.1525264    0.0976964 
   8.400000000    -0.0660320    0.0264295    -0.0002115   -0.0008204    -0.0001828   -0.0008057     0.1586754    0.1089308 
   8.420000000    -0.0732903    0.0971285    -0.0008528   -0.0001664    -0.0007744   -0.0001424     0.2017419    0.0825725 
   8.440000000    -0.0239266    0.1192999    -0.0000440    0.0010046    -0.0001076    0.0009880     0.1787325    0.0483857 
   8.460000000    -0.0276464    0.0627638     0.0008148    0.0001957     0.0008088    0.0002531     0.1541514    0.0520429 
   8.480000000     0.0283249    0.0703354     0.0003074   -0.0009351     0.0002982   -0.0009272     0.1824595    0.0825201 
   8.500000000     0.0675437    0.0212280    -0.0007732   -0.0005218    -0.0007633   -0.0004676     0.2076044    0.0190259 
   8.520000000     0.0321650    0.0044726    -0.0007740    0.0011017    -0.0007795    0.0010779     0.1854728   -0.0107395 
   8.540000000     0.0633076   -0.0220149     0.0011317    0.0004213     0.0012110    0.0004155     0.1573762    0.0296169 
   8.560000000     0.0365139   -0.0292552     0.0005555   -0.0007349     0.0005241   -0.0007727     0.1811866    0.0301155 
   8.580000000     0.0215873   -0.0202817    -0.0007818   -0.0009764    -0.0007731   -0.0009862     0.1892782   -0.0276664 
   8.600000000    -0.0252954   -0.0762912    -0.0011074    0.0010294    -0.0010826    0.0010501     0.1710403   -0.0099804 
   8.620000000    -0.0591550   -0.0326883     0.0012992    0.0009869     0.0012774    0.0010066     0.1556313    0.0006419 
   8.640000000    -0.0395825   -0.0038985     0.0004221   -0.0010376     0.0004676   -0.0010437     0.1887515   -0.0141466 
   8.660000000    -0.0743531   -0.0070977    -0.0001448   -0.0010156    -0.0001557   -0.0010209     0.1816632   -0.0475997 
   8.680000000    -0.0502415    0.0134051    -0.0016965    0.0010000    -0.0016871    0.0009631     0.1816721   -0.0549845 
   8.700000000     0.0039703    0.0093343     0.0011161    0.0011673     0.0011646    0.0011792     0.1588236   -0.0598670 
   8.720000000    -0.0210592    0.0366118     0.0010125   -0.0012303     0.0009590   -0.0012080     0.1447176   -0.0653056 
   8.740000000    -0.0171173    0.0776539    -0.0005020   -0.0003617    -0.0005105   -0.0004190     0.1687972   -0.0760716 
   8.760000000     0.0171427    0.0091564    -0.0014424    0.0000404    -0.0014530    0.0000482     0.1679345   -0.1056540 
   8.780000000    -0.0033413    0.0146776     0.0007123    0.0015632     0.0007507    0.0015241     0.0989273   -0.1030031 
   8.800000000     0.0216140    0.0096439     0.0011897   -0.0007618     0.0011751   -0.0007992     0.1028534   -0.0812492 
   8.820000000     0.0119440   -0.0640829    -0.0006081   -0.0008613    -0.0006301   -0.0008459     0.1701848   -0.0860731 
   8.840000000    -0.0042799   -0.0378543    -0.0007490   -0.0000596    -0.0008014   -0.0000334     0.1174775   -0.1433696 
   8.860000000    -0.0059752    0.0054458    -0.0002457    0.0013688    -0.0003023    0.0013460     0.0824551   -0.1297352 
   8.880000000    -0.0393051   -0.0205519     0.0015652   -0.0001837     0.0015091   -0.0001248     0.1143715   -0.0960454 
   8.900000000    -0.0575892   -0.0420340    -0.0001125   -0.0012502    -0.0001599   -0.0012295     0.1309801   -0.1368646 
   8.920000000    -0.0618956   -0.0319819    -0.0011178    0.0000310    -0.0011886    0.0000372     0.0837532   -0.1475300 
   8.940000000    -0.0952758    0.0244543    -0.0002384    0.0009892    -0.0002904    0.0009670     0.0674746   -0.1568473 
   8.960000000    -0.0762159    0.0677527     0.0012396    0.0003495     0.0012710    0.0004050     0.0633530   -0.1426332 
   8.980000000    -0.0309401    0.0588508     0.0003707   -0.0012611     0.0003444   -0.0012379     0.0724711   -0.1684723 
   9.000000000    -0.0065782    0.0584162    -0.0011095   -0.0003251    -0.0011472   -0.0003476     0.0402934   -0.1566205 
   9.020000000    -0.0206153    0.0564755    -0.0003839    0.0010695    -0.0003875    0.0010012     0.0307941   -0.1744249 
   9.040000000    -0.0193212    0.0765426     0.0008205    0.0006014     0.0008032    0.0005731     0.0105496   -0.1676717 
   9.060000000     0.0598836    0.0837541     0.0008808   -0.0009289     0.0008884   -0.0008526     0.0192522   -0.1284133 
   9.080000000     0.0766358    0.0341599    -0.0010450   -0.0008136    -0.0010830   -0.0008608     0.0129802   -0.1892111 
   9.100000000     0.0359166   -0.0060757    -0.0006977    0.0008551    -0.0007012    0.0008397    -0.0071000   -0.1776607 
   9.120000000     0.0499915   -0.0430445     0.0007327    0.0007603     0.0007486    0.0007857    -0.0305229   -0.1415268 
   9.140000000     0.0396493   -0.0391940     0.0010376   -0.0003710     0.0010201   -0.0003541    -0.0139761   -0.1599010 
   9.160000000     0.0365843   -0.0006316    -0.0007455   -0.0013468    -0.0007973   -0.0013543    -0.0292221   -0.1973122 
   9.180000000     0.0079236   -0.0894411    -0.0009478    0.0008092    -0.0009756    0.0008207    -0.0804646   -0.1798142 
   9.200000000    -0.0565124   -0.1095935     0.0005847    0.0009983     0.0005770    0.0009814    -0.0847736   -0.1487517 
   9.220000000    -0.0821497   -0.0538272     0.0008194   -0.0002755     0.0008135   -0.0002575    -0.0762661   -0.1608396 
   9.240000000    -0.0903262   -0.0256507    -0.0002299   -0.0013436    -0.0002175   -0.0013073    -0.0880182   -0.1663935 
   9.260000000    -0.0846236   -0.0083603    -0.0012385    0.0003938    -0.0012166    0.0003292    -0.1001732   -0.1392622 
   9.280000000    -0.0708925    0.0229839     0.0002626    0.0009847     0.0003090    0.0009335    -0.1301195   -0.1356581 
   9.300000000    -0.0929532    0.0771130     0.0008288    0.0000956     0.0008410    0.0000385    -0.1475066   -0.1200115 
   9.320000000    -0.0749361    0.0901767     0.0003394   -0.0011053     0.0003275   -0.0010827    -0.1095207   -0.1046695 
   9.340000000    -0.0479418    0.0577575    -0.0011245   -0.0003580    -0.0011834   -0.0003249    -0.1330698   -0.1343968 
   9.360000000     0.0211563    0.0857321    -0.0003813    0.0012254    -0.0003930    0.0012331    -0.1847694   -0.1190162 
   9.380000000     0.0280952    0.0569994     0.0010222    0.0004179     0.0010264    0.0004225    -0.1667490   -0.0857234 
   9.400000000    -0.0054125    0.0577306     0.0006280   -0.0010069     0.0006249   -0.0010149    -0.1318982   -0.0838061 
   9.420000000     0.0634962    0.0341836    -0.0008101   -0.0007914    -0.0008136   -0.0008034    -0.1951856   -0.1053217 
   9.440000000     0.0355016    0.0018548    -0.0011282    0.0009644    -0.0011323    0.0009473    -0.2270517   -0.0655759 
   9.460000000    -0.0219203    0.0323151     0.0013057    0.0012093     0.0012279    0.0012058    -0.1933343   -0.0162989 
   9.480000000     0.0091518    0.0073970     0.0009587   -0.0012544     0.0009526   -0.0012763    -0.1822508   -0.0385723 
   9.500000000    -0.0087765   -0.0037105    -0.0008583   -0.0008366    -0.0008440   -0.0008166    -0.2175042   -0.0131190 
   9.520000000    -0.0073307    0.0267777    -0.0013044    0.0007501    -0.0012992    0.0006895    -0.2206029    0.0089281 
   9.540000000    -0.0215150   -0.0064791     0.0005973    0.0015602     0.0006069    0.0016016    -0.1995635    0.0293918 
   9.560000000    -0.0165785    0.0094321     0.0016420   -0.0010894     0.0016616   -0.0011441    -0.1873381    0.0207965 
   9.580000000     0.0391395    0.0457230    -0.0009322   -0.0011516    -0.0009886   -0.0011457    -0.1969159    0.0375187 
   9.600000000     0.0240901    0.0611099    -0.0011543    0.0005687    -0.0011735    0.0005390    -0.1954763    0.0315309 
   9.620000000     0.0085599   -0.0052043     0.0001781    0.0013755     0.0001716    0.0013779    -0.2219477    0.0683866 
   9.640000000    -0.0115625   -0.0483167     0.0019354   -0.0000643     0.0019027   -0.0000705    -0.1997503    0.1000680 
   9.660000000     0.0015540   -0.0152152    -0.0004281   -0.0019740    -0.0004488   -0.0019840    -0.1877895    0.0871141 
   9.680000000     0.0011124   -0.0484857    -0.0018378    0.0005122    -0.0018317    0.0005319    -0.2057457    0.0736488 
   9.700000000    -0.0299206   -0.0753979     0.0002263    0.0013565     0.0002777    0.0013430    -0.2358248    0.1642179 
   9.720000000    -0.0281651   -0.0383267     0.0017039    0.0002419     0.0016985    0.0001569    -0.1458904    0.1581841 
   9.740000000    -0.1079105   -0.0181363     0.0003572   -0.0020160     0.0003868   -0.0020161    -0.1586400    0.1316704 
   9.760000000    -0.1646647    0.0152776    -0.0023710    0.0000903    -0.0023660    0.0001189    -0.1884635    0.1560072 
   9.780000000    -0.1211603    0.0444701     0.0004329    0.0018670     0.0004275    0.0018378    -0.1692347    0.2040342 
   9.800000000    -0.0892947    0.0791522     0.0014157   -0.0001027     0.0014218   -0.0000745    -0.0937921    0.1944136 
   9.820000000    -0.1043423    0.1343693     0.0003113   -0.0012555     0.0002644   -0.0013373    -0.1283807    0.1556302 
   9.840000000    -0.0527427    0.1305556    -0.0018608   -0.0005894    -0.0017478   -0.0005873    -0.1649773    0.2234235 
   9.860000000     0.0096455    0.1233939    -0.0000947    0.0018815    -0.0001142    0.0018760    -0.1056521    0.2168689 
   9.880000000     0.0683875    0.1640223     0.0012577   -0.0001945     0.0013729   -0.0002040    -0.0923917    0.2194668 
   9.900000000     0.1007757    0.1350329     0.0001520   -0.0006104     0.0001845   -0.0006229    -0.0986650    0.2363568 
   9.920000000     0.1172136    0.0403005    -0.0005930   -0.0008388    -0.0006191   -0.0008146    -0.0808355    0.2591216 
   9.940000000     0.1162330   -0.0145576    -0.0009440    0.0009306    -0.0010051    0.0008868    -0.0613636    0.2455988 
   9.960000000     0.0697631   -0.0391936     0.0008268    0.0006054     0.0008999    0.0006182    -0.0260045    0.2686666 
   9.980000000     0.0453183   -0.0742626     0.0004659   -0.0000154     0.0004221   -0.0000594    -0.0005825    0.2794552 
  10.000000000     0.0582149   -0.1149623     0.0003837   -0.0013645     0.0004156   -0.0013508    -0.0095257    0.2394091 
