! 4/11/2025 3:16:21 PM
! C:\ANRITSUVNA\LELEC2350\LAB1_2025\GROUP1_WITHOUTGRID.S2P
! CHANNEL.1
! TR.MEASUREMENT
! CORRECTED.DATA
! RF.CORRECTION: FULL.TWO.PORT.CAL.PORT.1.2
! AVERAGING.OFF
! IF.BANDWIDTH: 300HZ
! SWEEPTYPE:  FREQ.SWEEP(Linear)
! Reference Plane Port Info
! PORT:              PORT1              PORT2             
! DISTANCE:          0  m               0  m              
! TIME:              0  s               0  s              
! PHASE.OFFSET:      0 °                0 °               
! LOSS:              0  dB              0  dB             
! REF.LOSS:          0  dB              0  dB             
! REF.FREQ:          0  Hz              0  Hz             
! Power Info
! POWER:             5  dBm             5  dBm            
! EFF.POWER:         5  dBm             5  dBm            
# GHZ S RI R 50.0
! FREQ.GHZ         S11RE         S11IM         S21RE         S21IM         S12RE         S12IM         S22RE         S22IM         
!; PortSelection: Port_12
   7.000000000    -0.0785213   -0.0267480    -0.0129994    0.0155560    -0.0062601    0.0064683    -0.0486625   -0.1073438 
   7.020000000    -0.0940333    0.0420436     0.0154007    0.0139328     0.0063220    0.0068721    -0.0356712   -0.1118089 
   7.040000000    -0.0263719    0.0771844     0.0144068   -0.0158389     0.0070328   -0.0061413    -0.0607066   -0.1141738 
   7.060000000    -0.0261887    0.0398032    -0.0153988   -0.0145963    -0.0062150   -0.0073009    -0.0548228   -0.0970875 
   7.080000000    -0.0075707    0.0623383    -0.0146452    0.0148917    -0.0073623    0.0064436    -0.0593402   -0.1055689 
   7.100000000     0.0661083    0.0677716     0.0142247    0.0143520     0.0058979    0.0071751    -0.0791791   -0.1011671 
   7.120000000     0.0853832    0.0468293     0.0149008   -0.0130226     0.0074806   -0.0053646    -0.0638023   -0.0786244 
   7.140000000     0.0971621    0.0073614    -0.0122803   -0.0154998    -0.0050684   -0.0077207    -0.0776635   -0.0963195 
   7.160000000     0.0838694   -0.0810366    -0.0159015    0.0117808    -0.0076791    0.0048005    -0.0881048   -0.0965212 
   7.180000000     0.0029506   -0.1176083     0.0113980    0.0156453     0.0040443    0.0076539    -0.0974604   -0.0818444 
   7.200000000    -0.0399339   -0.0915693     0.0158888   -0.0099006     0.0075168   -0.0035219    -0.0879800   -0.0753208 
   7.220000000    -0.0425650   -0.0788147    -0.0087973   -0.0161332    -0.0030787   -0.0074993    -0.1140867   -0.0976946 
   7.240000000    -0.0526619   -0.0493165    -0.0165846    0.0078842    -0.0077483    0.0025204    -0.1274606   -0.0678721 
   7.260000000    -0.0815529   -0.0168145     0.0070107    0.0165756     0.0020614    0.0079734    -0.1092988   -0.0563739 
   7.280000000    -0.1135678    0.0309711     0.0165602   -0.0055676     0.0081790   -0.0016392    -0.1210775   -0.0590455 
   7.300000000    -0.0741979    0.0654447    -0.0048129   -0.0167600    -0.0013690   -0.0079810    -0.1451622   -0.0512073 
   7.320000000    -0.0173860    0.0596122    -0.0164258    0.0037054    -0.0074611    0.0008074    -0.1379557   -0.0243112 
   7.340000000     0.0148214    0.0662995     0.0024288    0.0163310    -0.0001373    0.0072090    -0.1176715   -0.0329020 
   7.360000000     0.0314260    0.0213793     0.0163426   -0.0014837     0.0074458    0.0009507    -0.1515110   -0.0330333 
   7.380000000     0.0122909   -0.0005172    -0.0003785   -0.0169124     0.0011775   -0.0078031    -0.1483545   -0.0217430 
   7.400000000     0.0483484    0.0334143    -0.0163287    0.0001454    -0.0076464   -0.0012182    -0.1369031   -0.0031878 
   7.420000000     0.0604022   -0.0126433    -0.0011851    0.0156913    -0.0016712    0.0072886    -0.1520675   -0.0048471 
   7.440000000     0.0164452   -0.0388577     0.0153997    0.0020741     0.0068287    0.0021582    -0.1616960    0.0055821 
   7.460000000     0.0140144   -0.0368341     0.0035749   -0.0153302     0.0027317   -0.0065197    -0.1542689    0.0279024 
   7.480000000    -0.0145576   -0.0501013    -0.0152050   -0.0040479    -0.0064420   -0.0030128    -0.1560848    0.0124511 
   7.500000000    -0.0275276   -0.0395076    -0.0043908    0.0141380    -0.0032721    0.0058530    -0.1604512    0.0435120 
   7.520000000    -0.0005426   -0.0653406     0.0135719    0.0055040     0.0055420    0.0037320    -0.1462886    0.0466714 
   7.540000000    -0.0305467   -0.0737956     0.0058970   -0.0123320     0.0039892   -0.0050349    -0.1559208    0.0672599 
   7.560000000    -0.0789174   -0.0333334    -0.0110224   -0.0071868    -0.0042445   -0.0045134    -0.1464520    0.0520079 
   7.580000000    -0.1271332    0.0173295    -0.0083834    0.0098323    -0.0052435    0.0035143    -0.1434854    0.0840237 
   7.600000000    -0.0975476    0.0720986     0.0089191    0.0105245     0.0034542    0.0061008    -0.1406229    0.0757742 
   7.620000000    -0.0451223    0.0831801     0.0114649   -0.0093228     0.0061085   -0.0034162    -0.1526822    0.0985980 
   7.640000000    -0.0141931    0.1129753    -0.0084136   -0.0121034    -0.0024378   -0.0064041    -0.1281284    0.0944239 
   7.660000000     0.0838294    0.0756799    -0.0129571    0.0079924    -0.0069997    0.0019379    -0.1332005    0.0970514 
   7.680000000     0.0778941    0.0099575     0.0070368    0.0137150     0.0014778    0.0075008    -0.1405856    0.1229534 
   7.700000000     0.0740957    0.0195662     0.0148178   -0.0068808     0.0082123   -0.0014702    -0.1303820    0.1356698 
   7.720000000     0.0586915   -0.0716900    -0.0061666   -0.0146578    -0.0013576   -0.0080642    -0.1144254    0.1248883 
   7.740000000     0.0033021   -0.0850418    -0.0152875    0.0047060    -0.0082087    0.0008324    -0.1214160    0.1422980 
   7.760000000     0.0181697   -0.0647219     0.0039649    0.0154953     0.0005514    0.0080369    -0.1158682    0.1674666 
   7.780000000    -0.0329133   -0.0908343     0.0165225   -0.0027627     0.0080691    0.0002345    -0.0919969    0.1439459 
   7.800000000    -0.0978538   -0.0617319    -0.0022132   -0.0167156     0.0008200   -0.0083523    -0.0844153    0.1574724 
   7.820000000    -0.0935791   -0.0140175    -0.0169409    0.0010854    -0.0084044   -0.0014561    -0.0880937    0.1806006 
   7.840000000    -0.0854566    0.0288387     0.0008308    0.0172049    -0.0016874    0.0084737    -0.0727412    0.1756233 
   7.860000000    -0.0508298    0.0720830     0.0168719    0.0002934     0.0081611    0.0020968    -0.0677345    0.1830969 
   7.880000000    -0.0183027    0.0401116     0.0014468   -0.0171746     0.0026928   -0.0081591    -0.0643361    0.1659326 
   7.900000000    -0.0134178    0.0405576    -0.0169703   -0.0023901    -0.0081170   -0.0030522    -0.0507275    0.2042650 
   7.920000000     0.0023344    0.0538175    -0.0035420    0.0180122    -0.0035736    0.0081068    -0.0349463    0.2004735 
   7.940000000     0.0164104    0.0311819     0.0176467    0.0037481     0.0080725    0.0038922    -0.0292154    0.1866347 
   7.960000000     0.0777416    0.0044427     0.0046867   -0.0174909     0.0042562   -0.0077586    -0.0088006    0.2005528 
   7.980000000     0.0832035   -0.0453151    -0.0168922   -0.0048558    -0.0073785   -0.0046318     0.0058953    0.2264595 
   8.000000000    -0.0135636   -0.0485371    -0.0066010    0.0163504    -0.0050656    0.0069162     0.0154965    0.1866482 
   8.020000000    -0.0296141   -0.0308199     0.0160680    0.0071539     0.0066650    0.0054763     0.0342337    0.2019679 
   8.040000000    -0.0205282   -0.0712673     0.0078377   -0.0157570     0.0058496   -0.0063211     0.0447583    0.1885446 
   8.060000000    -0.0451177   -0.0455212    -0.0154468   -0.0085505    -0.0060877   -0.0061195     0.0433526    0.1924782 
   8.080000000    -0.0446545   -0.0491444    -0.0086558    0.0143881    -0.0061469    0.0056644     0.0562675    0.1885483 
   8.100000000    -0.1026774   -0.0358493     0.0137883    0.0095503     0.0050611    0.0065619     0.0545723    0.1782811 
   8.120000000    -0.1032082    0.0790932     0.0098738   -0.0131763     0.0070170   -0.0046043     0.0724858    0.1825001 
   8.140000000    -0.0313366    0.1098124    -0.0121707   -0.0110154    -0.0041009   -0.0072581     0.0734795    0.1851846 
   8.160000000    -0.0145412    0.0634832    -0.0111034    0.0114244    -0.0071744    0.0036922     0.0907151    0.1814329 
   8.180000000     0.0150373    0.0562554     0.0104959    0.0117531     0.0031551    0.0072292     0.1008938    0.1593115 
   8.200000000     0.0631983    0.0402061     0.0122703   -0.0093714     0.0074191   -0.0023743     0.1137329    0.1750181 
   8.220000000     0.0539480    0.0301790    -0.0079440   -0.0127458    -0.0018385   -0.0076929     0.1288125    0.1644639 
   8.240000000     0.0838323   -0.0120866    -0.0134658    0.0073539    -0.0077924    0.0015766     0.1461345    0.1390482 
   8.260000000     0.1014777   -0.0904227     0.0062986    0.0137423     0.0010354    0.0078191     0.1241925    0.1331031 
   8.280000000     0.0299310   -0.1088678     0.0139733   -0.0054814     0.0075588   -0.0004386     0.1349130    0.1480670 
   8.300000000    -0.0486497   -0.0997489    -0.0043652   -0.0139162     0.0001454   -0.0073537     0.1716689    0.1203832 
   8.320000000    -0.0823172   -0.0763743    -0.0139739    0.0031816    -0.0070655   -0.0008903     0.1332902    0.1054508 
   8.340000000    -0.0790128   -0.0506744     0.0019610    0.0139248    -0.0016102    0.0069650     0.1346092    0.1142493 
   8.360000000    -0.1226725   -0.0522725     0.0143972   -0.0007623     0.0070043    0.0021891     0.1673721    0.1131063 
   8.380000000    -0.1132483    0.0035618    -0.0001908   -0.0142305     0.0024005   -0.0065624     0.1777554    0.0870004 
   8.400000000    -0.0751283    0.0217213    -0.0139184   -0.0011810    -0.0059748   -0.0030817     0.1464335    0.0856236 
   8.420000000    -0.0782552    0.1078809    -0.0021026    0.0137060    -0.0038534    0.0054888     0.1805539    0.0936602 
   8.440000000    -0.0106271    0.1253677     0.0132840    0.0033932     0.0050815    0.0047968     0.1864596    0.0696597 
   8.460000000    -0.0254391    0.0574594     0.0046660   -0.0131836     0.0055613   -0.0049549     0.1800286    0.0437805 
   8.480000000     0.0195179    0.0645361    -0.0125051   -0.0058225    -0.0046978   -0.0060418     0.1717936    0.0593864 
   8.500000000     0.0635203    0.0239104    -0.0069714    0.0125948    -0.0065701    0.0044885     0.1883595    0.0285507 
   8.520000000     0.0377758    0.0094336     0.0117515    0.0076005     0.0038855    0.0068649     0.1914804    0.0030209 
   8.540000000     0.0662269   -0.0263414     0.0090316   -0.0112438     0.0075344   -0.0033606     0.1793686    0.0267450 
   8.560000000     0.0327820   -0.0344749    -0.0105402   -0.0099659    -0.0029041   -0.0081953     0.1743292    0.0057948 
   8.580000000     0.0166509   -0.0165780    -0.0111923    0.0104499    -0.0086637    0.0026799     0.1677303   -0.0223596 
   8.600000000    -0.0211247   -0.0677638     0.0101499    0.0114830     0.0022970    0.0088163     0.1751293    0.0083826 
   8.620000000    -0.0509659   -0.0323122     0.0121086   -0.0088936     0.0089855   -0.0016371     0.1735282   -0.0001384 
   8.640000000    -0.0399514   -0.0117756    -0.0084176   -0.0130227    -0.0012567   -0.0093901     0.1869148   -0.0342899 
   8.660000000    -0.0859339   -0.0078210    -0.0137492    0.0071417    -0.0094060    0.0006781     0.1611407   -0.0452803 
   8.680000000    -0.0492865    0.0303853     0.0066566    0.0145663    -0.0000082    0.0097052     0.1841391   -0.0371844 
   8.700000000     0.0215204    0.0036943     0.0150035   -0.0057785     0.0099263    0.0004142     0.1776374   -0.0591653 
   8.720000000    -0.0220652    0.0191827    -0.0050408   -0.0157820     0.0009323   -0.0098129     0.1451622   -0.0863965 
   8.740000000    -0.0222004    0.0867159    -0.0157773    0.0045244    -0.0097422   -0.0013795     0.1493273   -0.0795305 
   8.760000000     0.0179821    0.0198826     0.0034161    0.0160450    -0.0023142    0.0095586     0.1661050   -0.0878178 
   8.780000000     0.0057642    0.0156435     0.0159766   -0.0023984     0.0096963    0.0028144     0.1147912   -0.1003693 
   8.800000000     0.0322422    0.0000034    -0.0011179   -0.0165915     0.0033504   -0.0095878     0.1039949   -0.1001030 
   8.820000000     0.0045979   -0.0769615    -0.0165043    0.0008023    -0.0092630   -0.0037240     0.1532150   -0.0898050 
   8.840000000    -0.0177206   -0.0320603    -0.0002965    0.0162292    -0.0043221    0.0088647     0.1118668   -0.1238960 
   8.860000000     0.0058172    0.0216490     0.0161310    0.0011433     0.0085221    0.0048655     0.0997965   -0.1258614 
   8.880000000    -0.0249767   -0.0316531     0.0026073   -0.0158964     0.0055935   -0.0081512     0.1204163   -0.1130958 
   8.900000000    -0.0691454   -0.0522667    -0.0159648   -0.0035601    -0.0076944   -0.0062553     0.1151060   -0.1417509 
   8.920000000    -0.0699794   -0.0283370    -0.0043208    0.0155406    -0.0068239    0.0072318     0.0774616   -0.1342688 
   8.940000000    -0.0959703    0.0278560     0.0151391    0.0054385     0.0066977    0.0073956     0.0834933   -0.1504653 
   8.960000000    -0.0675790    0.0732331     0.0060817   -0.0144890     0.0079288   -0.0061430     0.0678910   -0.1596148 
   8.980000000    -0.0292639    0.0531888    -0.0138100   -0.0075227    -0.0055297   -0.0085294     0.0597093   -0.1745642 
   9.000000000    -0.0110295    0.0511470    -0.0083872    0.0134341    -0.0090901    0.0051701     0.0285241   -0.1465345 
   9.020000000    -0.0220813    0.0560007     0.0129247    0.0093267     0.0046009    0.0093804     0.0414083   -0.1643178 
   9.040000000    -0.0145800    0.0835531     0.0099605   -0.0124689     0.0098240   -0.0039413     0.0186006   -0.1796248 
   9.060000000     0.0648642    0.0761027    -0.0113268   -0.0107210    -0.0031575   -0.0102580     0.0091372   -0.1323683 
   9.080000000     0.0719226    0.0271818    -0.0116758    0.0106378    -0.0108036    0.0025829     0.0012015   -0.1835035 
   9.100000000     0.0320610   -0.0032211     0.0097644    0.0123339     0.0021192    0.0110358     0.0018058   -0.1611652 
   9.120000000     0.0511922   -0.0420036     0.0131388   -0.0090911     0.0114245   -0.0015417    -0.0143476   -0.1516466 
   9.140000000     0.0410924   -0.0464802    -0.0083709   -0.0135502    -0.0011320   -0.0113664    -0.0251875   -0.1718480 
   9.160000000     0.0315479   -0.0024868    -0.0138357    0.0075769    -0.0113532    0.0004869    -0.0399331   -0.1920578 
   9.180000000     0.0061632   -0.0835062     0.0066070    0.0142254    -0.0001217    0.0113587    -0.0759886   -0.1660659 
   9.200000000    -0.0585424   -0.1097387     0.0146307   -0.0057106     0.0111780    0.0006397    -0.0696810   -0.1553880 
   9.220000000    -0.0864728   -0.0568961    -0.0048407   -0.0147510     0.0013443   -0.0110095    -0.0849042   -0.1758405 
   9.240000000    -0.0924982   -0.0278386    -0.0147477    0.0039134    -0.0107787   -0.0018311    -0.1031275   -0.1633189 
   9.260000000    -0.0869017   -0.0003144     0.0027659    0.0145444    -0.0025189    0.0102739    -0.0967046   -0.1206593 
   9.280000000    -0.0683375    0.0301012     0.0143575   -0.0014295     0.0098300    0.0033649    -0.1142097   -0.1381631 
   9.300000000    -0.0847398    0.0742832    -0.0002105   -0.0143326     0.0042055   -0.0095109    -0.1508223   -0.1363276 
   9.320000000    -0.0772729    0.0828584    -0.0142693   -0.0009626    -0.0093010   -0.0049119    -0.1248778   -0.1009345 
   9.340000000    -0.0627158    0.0628658    -0.0019655    0.0142388    -0.0052996    0.0089899    -0.1309096   -0.1165817 
   9.360000000     0.0277464    0.0971367     0.0140845    0.0027617     0.0083349    0.0058215    -0.1675808   -0.1199883 
   9.380000000     0.0425147    0.0497368     0.0038600   -0.0134509     0.0065202   -0.0075851    -0.1644449   -0.1038587 
   9.400000000    -0.0110539    0.0531932    -0.0129692   -0.0050609    -0.0068875   -0.0071973    -0.1516141   -0.0869655 
   9.420000000     0.0591426    0.0343806    -0.0063459    0.0125195    -0.0079905    0.0062092    -0.1959830   -0.0814975 
   9.440000000     0.0320637    0.0024154     0.0121381    0.0073516     0.0057991    0.0086062    -0.2066366   -0.0693485 
   9.460000000    -0.0167660    0.0424499     0.0081871   -0.0116637     0.0090017   -0.0051963    -0.1960559   -0.0322681 
   9.480000000     0.0193724    0.0079707    -0.0113299   -0.0088816    -0.0047130   -0.0094568    -0.1994332   -0.0413683 
   9.500000000    -0.0161308   -0.0094096    -0.0094329    0.0105133    -0.0096483    0.0038537    -0.2222938    0.0107149 
   9.520000000    -0.0147286    0.0339560     0.0094026    0.0101952     0.0029108    0.0100244    -0.1981931    0.0121932 
   9.540000000    -0.0124906    0.0016209     0.0111807   -0.0083552     0.0104631   -0.0020983    -0.1966701    0.0133048 
   9.560000000    -0.0137155    0.0003362    -0.0078245   -0.0122972    -0.0014097   -0.0110345    -0.2018222    0.0167110 
   9.580000000     0.0331525    0.0416945    -0.0127617    0.0072775    -0.0111501    0.0008319    -0.2073632    0.0577380 
   9.600000000     0.0290970    0.0697707     0.0066104    0.0130936     0.0002864    0.0113749    -0.1670370    0.0393368 
   9.620000000     0.0131243    0.0027353     0.0134360   -0.0056009     0.0112998    0.0004974    -0.2185875    0.0442359 
   9.640000000    -0.0096152   -0.0529498    -0.0046562   -0.0139375     0.0013911   -0.0113895    -0.2211034    0.0973247 
   9.660000000    -0.0014020   -0.0254812    -0.0141679    0.0036991    -0.0114151   -0.0019341    -0.1961403    0.1075026 
   9.680000000    -0.0043879   -0.0467225     0.0027860    0.0145130    -0.0025086    0.0111907    -0.1821366    0.0833384 
   9.700000000    -0.0307205   -0.0651089     0.0145819   -0.0020813     0.0108812    0.0031870    -0.2306807    0.1391902 
   9.720000000    -0.0170016   -0.0381371    -0.0012456   -0.0145666     0.0038045   -0.0105633    -0.1696768    0.1552068 
   9.740000000    -0.1049908   -0.0326616    -0.0144290    0.0005948    -0.0103633   -0.0044421    -0.1622603    0.1525020 
   9.760000000    -0.1779771    0.0189597    -0.0005872    0.0139698    -0.0049058    0.0099258    -0.1661543    0.1625740 
   9.780000000    -0.1203735    0.0624219     0.0139714    0.0014456     0.0094984    0.0053976    -0.1609745    0.1811185 
   9.800000000    -0.0767752    0.0783572     0.0022427   -0.0133559     0.0058509   -0.0089441    -0.1155916    0.1908888 
   9.820000000    -0.0969761    0.1250212    -0.0132105   -0.0032463    -0.0082737   -0.0063299    -0.1306311    0.1733750 
   9.840000000    -0.0601020    0.1267338    -0.0040564    0.0121209    -0.0067389    0.0072052    -0.1493550    0.2297617 
   9.860000000    -0.0001770    0.1261855     0.0114798    0.0053526     0.0063066    0.0076017    -0.0965853    0.2000807 
   9.880000000     0.0761616    0.1688313     0.0064079   -0.0109736     0.0082839   -0.0057114    -0.1074148    0.2082038 
   9.900000000     0.1200255    0.1346008    -0.0102834   -0.0072955    -0.0049852   -0.0086591    -0.1079319    0.2552136 
   9.920000000     0.1176830    0.0289016    -0.0079873    0.0095800    -0.0090256    0.0043230    -0.0623360    0.2670789 
   9.940000000     0.1003957   -0.0180039     0.0084678    0.0092214     0.0031484    0.0095889    -0.0514570    0.2286889 
   9.960000000     0.0675555   -0.0324042     0.0100709   -0.0080296     0.0102046   -0.0024283    -0.0401533    0.2596494 
   9.980000000     0.0507854   -0.0738417    -0.0072014   -0.0108401    -0.0016788   -0.0104440    -0.0133770    0.2950774 
  10.000000000     0.0567402   -0.1233417    -0.0113863    0.0063061    -0.0106303    0.0007402     0.0083126    0.2527360 
