! 4/11/2025 3:31:01 PM
! C:\ANRITSUVNA\LELEC2350\LAB1_2025\GROUP1_35.S2P
! CHANNEL.1
! TR.MEASUREMENT
! CORRECTED.DATA
! RF.CORRECTION: FULL.TWO.PORT.CAL.PORT.1.2
! AVERAGING.OFF
! IF.BANDWIDTH: 300HZ
! SWEEPTYPE:  FREQ.SWEEP(Linear)
! Reference Plane Port Info
! PORT:              PORT1              PORT2             
! DISTANCE:          0  m               0  m              
! TIME:              0  s               0  s              
! PHASE.OFFSET:      0 °                0 °               
! LOSS:              0  dB              0  dB             
! REF.LOSS:          0  dB              0  dB             
! REF.FREQ:          0  Hz              0  Hz             
! Power Info
! POWER:             5  dBm             5  dBm            
! EFF.POWER:         5  dBm             5  dBm            
# GHZ S RI R 50.0
! FREQ.GHZ         S11RE         S11IM         S21RE         S21IM         S12RE         S12IM         S22RE         S22IM         
!; PortSelection: Port_12
   7.000000000    -0.0732212   -0.0165475     0.0076097   -0.0080032     0.0075548   -0.0078606    -0.0384799   -0.1068308 
   7.020000000    -0.0720413    0.0383318    -0.0061017   -0.0069398    -0.0060513   -0.0071611    -0.0326109   -0.1234092 
   7.040000000    -0.0348184    0.0588147    -0.0088428    0.0055730    -0.0088329    0.0055369    -0.0695109   -0.1208089 
   7.060000000    -0.0426585    0.0484086     0.0071772    0.0086855     0.0074849    0.0085649    -0.0642448   -0.0858099 
   7.080000000     0.0056528    0.0710979     0.0067270   -0.0067800     0.0064256   -0.0071707    -0.0495849   -0.0963342 
   7.100000000     0.0812426    0.0617005    -0.0046286   -0.0063137    -0.0045135   -0.0061671    -0.0680636   -0.1092973 
   7.120000000     0.0698314    0.0340757    -0.0075760    0.0031939    -0.0076847    0.0029573    -0.0685420   -0.0896694 
   7.140000000     0.0866770    0.0200554     0.0034191    0.0091443     0.0032494    0.0093205    -0.0921359   -0.0919692 
   7.160000000     0.1014609   -0.0751428     0.0083609   -0.0041453     0.0085425   -0.0041226    -0.0833133   -0.0803378 
   7.180000000     0.0077447   -0.1277525    -0.0029335   -0.0074331    -0.0025741   -0.0075680    -0.0813716   -0.0869737 
   7.200000000    -0.0596466   -0.0986499    -0.0081063    0.0007986    -0.0083114    0.0004673    -0.0898746   -0.0878119 
   7.220000000    -0.0440162   -0.0636238     0.0005793    0.0111465     0.0006502    0.0112641    -0.1257887   -0.0998481 
   7.240000000    -0.0329107   -0.0476935     0.0114282   -0.0032962     0.0116481   -0.0032775    -0.1325176   -0.0559710 
   7.260000000    -0.0824722   -0.0299741    -0.0036422   -0.0095374    -0.0038307   -0.0097388    -0.0982758   -0.0506786 
   7.280000000    -0.1321175    0.0269353    -0.0083243    0.0020376    -0.0084800    0.0021808    -0.1149568   -0.0666779 
   7.300000000    -0.0711945    0.0820535     0.0007091    0.0093240     0.0008172    0.0096058    -0.1487971   -0.0556535 
   7.320000000    -0.0024106    0.0596586     0.0099822   -0.0020520     0.0101999   -0.0022513    -0.1480115   -0.0235807 
   7.340000000     0.0060518    0.0552679    -0.0029178   -0.0081986    -0.0031456   -0.0083439    -0.1142847   -0.0212920 
   7.360000000     0.0201399    0.0218036    -0.0059295    0.0018267    -0.0060162    0.0019250    -0.1419563   -0.0321591 
   7.380000000     0.0214499    0.0115851    -0.0007451    0.0055600    -0.0006153    0.0054925    -0.1432365   -0.0316541 
   7.400000000     0.0565181    0.0299628     0.0068437    0.0022642     0.0068069    0.0020393    -0.1464369   -0.0129446 
   7.420000000     0.0489998   -0.0219175     0.0017623   -0.0072480     0.0017889   -0.0071831    -0.1629054    0.0066099 
   7.440000000     0.0079228   -0.0343671    -0.0062840   -0.0022152    -0.0063276   -0.0021942    -0.1530227    0.0143824 
   7.460000000     0.0234011   -0.0241674    -0.0038759    0.0058338    -0.0036046    0.0059081    -0.1447298    0.0227534 
   7.480000000    -0.0068738   -0.0570377     0.0070702    0.0058384     0.0070325    0.0054346    -0.1606731    0.0006863 
   7.500000000    -0.0377893   -0.0504311     0.0046724   -0.0093306     0.0046798   -0.0089155    -0.1751928    0.0491531 
   7.520000000    -0.0068384   -0.0602494    -0.0086844   -0.0030648    -0.0083787   -0.0031478    -0.1397045    0.0605225 
   7.540000000    -0.0244424   -0.0614047    -0.0028828    0.0071059    -0.0030449    0.0069501    -0.1438536    0.0663852 
   7.560000000    -0.0711052   -0.0387114     0.0062903    0.0039434     0.0061577    0.0042389    -0.1446842    0.0398975 
   7.580000000    -0.1341451    0.0044567     0.0038300   -0.0069630     0.0043778   -0.0068973    -0.1543944    0.0831105 
   7.600000000    -0.1023739    0.0813337    -0.0058127   -0.0026951    -0.0062025   -0.0029935    -0.1402010    0.0836983 
   7.620000000    -0.0367122    0.0932979    -0.0028568    0.0037051    -0.0029533    0.0040715    -0.1477620    0.1009551 
   7.640000000    -0.0103796    0.1017259     0.0019847    0.0049787     0.0020945    0.0049838    -0.1238352    0.0913564 
   7.660000000     0.0709334    0.0690047     0.0070333   -0.0025197     0.0073444   -0.0026680    -0.1356108    0.0899445 
   7.680000000     0.0735993    0.0249461    -0.0034333   -0.0072497    -0.0038728   -0.0072783    -0.1468067    0.1246412 
   7.700000000     0.0858623    0.0272099    -0.0067795    0.0031499    -0.0064616    0.0034619    -0.1314089    0.1424686 
   7.720000000     0.0641033   -0.0879203     0.0019818    0.0074710     0.0019636    0.0071603    -0.1109010    0.1305241 
   7.740000000    -0.0098026   -0.0881861     0.0091375   -0.0018536     0.0091588   -0.0020394    -0.1091675    0.1362035 
   7.760000000     0.0159513   -0.0461261    -0.0038243   -0.0097556    -0.0039967   -0.0096756    -0.1238941    0.1565567 
   7.780000000    -0.0204859   -0.0883443    -0.0082726    0.0048650    -0.0080369    0.0050369    -0.1025608    0.1536936 
   7.800000000    -0.0971394   -0.0788725     0.0037227    0.0066198     0.0038267    0.0063737    -0.0772277    0.1663956 
   7.820000000    -0.1045517   -0.0094922     0.0067945   -0.0020254     0.0066764   -0.0018483    -0.0751070    0.1749884 
   7.840000000    -0.0801183    0.0442747    -0.0023556   -0.0075266    -0.0021862   -0.0074394    -0.0787912    0.1623952 
   7.860000000    -0.0407196    0.0642638    -0.0060979    0.0025435    -0.0063335    0.0023174    -0.0814635    0.1877468 
   7.880000000    -0.0204524    0.0233759     0.0010128    0.0047474     0.0011149    0.0049346    -0.0627028    0.1766384 
   7.900000000    -0.0257607    0.0478029     0.0047658    0.0014661     0.0048711    0.0015410    -0.0384549    0.2067067 
   7.920000000     0.0089880    0.0695785     0.0027092   -0.0069883     0.0026994   -0.0069983    -0.0318681    0.1904523 
   7.940000000     0.0290680    0.0212178    -0.0077180   -0.0023325    -0.0078001   -0.0021981    -0.0411853    0.1801653 
   7.960000000     0.0727204   -0.0081242    -0.0023061    0.0074457    -0.0022694    0.0074395    -0.0111937    0.2107283 
   7.980000000     0.0711152   -0.0340332     0.0072985    0.0033381     0.0074181    0.0033441     0.0124126    0.2313934 
   8.000000000    -0.0080021   -0.0391116     0.0043017   -0.0087846     0.0040432   -0.0088338     0.0245193    0.1842203 
   8.020000000    -0.0231304   -0.0435438    -0.0099071   -0.0030380    -0.0099798   -0.0027643     0.0333650    0.1882069 
   8.040000000    -0.0260456   -0.0758154    -0.0013401    0.0093264    -0.0011195    0.0091816     0.0322678    0.1914522 
   8.060000000    -0.0528809   -0.0307511     0.0074527    0.0013040     0.0071398    0.0010073     0.0440528    0.2029974 
   8.080000000    -0.0361406   -0.0443634     0.0026056   -0.0062375     0.0025777   -0.0060345     0.0674278    0.1926706 
   8.100000000    -0.0960245   -0.0520460    -0.0072143   -0.0032557    -0.0069485   -0.0033833     0.0574743    0.1650827 
   8.120000000    -0.1135060    0.0768399    -0.0018987    0.0066967    -0.0023618    0.0065965     0.0646975    0.1804907 
   8.140000000    -0.0417465    0.1268898     0.0045895    0.0022857     0.0046780    0.0025408     0.0677658    0.1912255 
   8.160000000    -0.0028878    0.0639443     0.0041514   -0.0031715     0.0042539   -0.0030306     0.0935125    0.1895545 
   8.180000000     0.0228369    0.0410931    -0.0042245   -0.0064997    -0.0041659   -0.0067140     0.1139127    0.1572331 
   8.200000000     0.0513722    0.0387789    -0.0061027    0.0055404    -0.0061630    0.0055482     0.1093930    0.1643335 
   8.220000000     0.0469710    0.0393218     0.0051236    0.0052015     0.0051394    0.0052319     0.1196004    0.1643558 
   8.240000000     0.0971241   -0.0155473     0.0055711   -0.0038382     0.0056831   -0.0039711     0.1450522    0.1473453 
   8.260000000     0.1048684   -0.1014525    -0.0040912   -0.0071060    -0.0041844   -0.0072268     0.1358325    0.1402874 
   8.280000000     0.0169299   -0.1019342    -0.0066293    0.0053634    -0.0069372    0.0055269     0.1388713    0.1356423 
   8.300000000    -0.0516420   -0.0916425     0.0052226    0.0052424     0.0054774    0.0052218     0.1640849    0.1111969 
   8.320000000    -0.0696158   -0.0824681     0.0041592   -0.0039869     0.0041958   -0.0040914     0.1227574    0.1148989 
   8.340000000    -0.0777971   -0.0579334    -0.0023368   -0.0044548    -0.0024385   -0.0044113     0.1390256    0.1243518 
   8.360000000    -0.1372634   -0.0475653    -0.0052207    0.0019913    -0.0052346    0.0019546     0.1794337    0.1076122 
   8.380000000    -0.1134907    0.0116418     0.0018561    0.0046381     0.0018036    0.0046882     0.1742490    0.0790831 
   8.400000000    -0.0623757    0.0191398     0.0041369   -0.0003019     0.0042367   -0.0003525     0.1383442    0.0855920 
   8.420000000    -0.0820157    0.1027747     0.0013420   -0.0047513     0.0014189   -0.0049602     0.1792634    0.1022981 
   8.440000000    -0.0223917    0.1290476    -0.0063640   -0.0023257    -0.0065911   -0.0023230     0.1934845    0.0736074 
   8.460000000    -0.0200764    0.0610048    -0.0015035    0.0074984    -0.0014586    0.0076007     0.1861813    0.0355546 
   8.480000000     0.0319987    0.0641869     0.0071506    0.0010359     0.0072750    0.0009730     0.1678219    0.0544300 
   8.500000000     0.0549061    0.0163287     0.0014549   -0.0064996     0.0014105   -0.0066281     0.1776368    0.0318292 
   8.520000000     0.0230871    0.0131322    -0.0070123   -0.0027145    -0.0072349   -0.0025582     0.1937812    0.0109102 
   8.540000000     0.0761340   -0.0179468    -0.0017696    0.0080599    -0.0014011    0.0083323     0.1898768    0.0275587 
   8.560000000     0.0416516   -0.0347202     0.0069312    0.0007758     0.0070627    0.0004944     0.1743968   -0.0011506 
   8.580000000     0.0058198   -0.0236352     0.0010364   -0.0053317     0.0006947   -0.0052695     0.1565762   -0.0311795 
   8.600000000    -0.0296101   -0.0633694    -0.0042930   -0.0030150    -0.0041723   -0.0027882     0.1670400    0.0228757 
   8.620000000    -0.0408188   -0.0233572    -0.0040761    0.0052611    -0.0038342    0.0051436     0.1873671    0.0108392 
   8.640000000    -0.0325611   -0.0141663     0.0057024    0.0037017     0.0053848    0.0034097     0.1928531   -0.0445705 
   8.660000000    -0.0972456   -0.0190792     0.0034698   -0.0046552     0.0033751   -0.0041092     0.1568258   -0.0528465 
   8.680000000    -0.0544772    0.0390044    -0.0036171   -0.0049983    -0.0032866   -0.0051743     0.1722284   -0.0319664 
   8.700000000     0.0377369    0.0146977    -0.0063399    0.0047339    -0.0064625    0.0045082     0.1829502   -0.0466088 
   8.720000000    -0.0195459    0.0119359     0.0058134    0.0059715     0.0055440    0.0061390     0.1563954   -0.0892024 
   8.740000000    -0.0363931    0.0760113     0.0050293   -0.0052777     0.0054438   -0.0051587     0.1475507   -0.0908716 
   8.760000000     0.0167973    0.0324513    -0.0044559   -0.0053848    -0.0044879   -0.0057309     0.1564914   -0.0893254 
   8.780000000     0.0203719    0.0233466    -0.0060153    0.0044056    -0.0063219    0.0045395     0.1091024   -0.0899477 
   8.800000000     0.0300387   -0.0107313     0.0053502    0.0056975     0.0055667    0.0058806     0.1117963   -0.0959920 
   8.820000000    -0.0059846   -0.0834558     0.0040489   -0.0045829     0.0041772   -0.0047388     0.1589589   -0.0962919 
   8.840000000    -0.0164462   -0.0199300    -0.0029359   -0.0037781    -0.0032368   -0.0039335     0.1043640   -0.1294530 
   8.860000000     0.0165040    0.0239317    -0.0045725    0.0014936    -0.0044104    0.0017198     0.0912708   -0.1182548 
   8.880000000    -0.0284617   -0.0454005     0.0013902    0.0055664     0.0016564    0.0055754     0.1259222   -0.1052625 
   8.900000000    -0.0745499   -0.0565403     0.0052051   -0.0012580     0.0050482   -0.0016022     0.1245739   -0.1430917 
   8.920000000    -0.0664241   -0.0154559    -0.0003042   -0.0050123    -0.0003097   -0.0047779     0.0791866   -0.1452913 
   8.940000000    -0.0871944    0.0296868    -0.0056308   -0.0011973    -0.0054611   -0.0013735     0.0695003   -0.1536990 
   8.960000000    -0.0709446    0.0591333    -0.0012196    0.0075447    -0.0014463    0.0074690     0.0642499   -0.1478585 
   8.980000000    -0.0345462    0.0534683     0.0077226    0.0000332     0.0078774    0.0002333     0.0706726   -0.1716357 
   9.000000000    -0.0077748    0.0639229    -0.0003644   -0.0068175    -0.0003941   -0.0069675     0.0296059   -0.1527472 
   9.020000000    -0.0157743    0.0533835    -0.0062397   -0.0003451    -0.0063189   -0.0004363     0.0338257   -0.1700187 
   9.040000000    -0.0176869    0.0682625    -0.0009181    0.0065110    -0.0009577    0.0067979     0.0135066   -0.1718182 
   9.060000000     0.0602988    0.0808454     0.0068483    0.0006274     0.0070443    0.0005832     0.0121826   -0.1235294 
   9.080000000     0.0775902    0.0393870    -0.0000896   -0.0058816    -0.0000361   -0.0060473     0.0080317   -0.1856005 
   9.100000000     0.0386262   -0.0113836    -0.0045663   -0.0008370    -0.0047694   -0.0006721     0.0052301   -0.1690205 
   9.120000000     0.0489783   -0.0547693    -0.0020956    0.0040943    -0.0017888    0.0042920    -0.0224794   -0.1518901 
   9.140000000     0.0333294   -0.0387521     0.0047649    0.0030995     0.0047035    0.0027613    -0.0287755   -0.1664790 
   9.160000000     0.0316184    0.0090739     0.0024394   -0.0048393     0.0023235   -0.0046579    -0.0335326   -0.1855567 
   9.180000000     0.0155072   -0.0938994    -0.0036329   -0.0029356    -0.0036063   -0.0029779    -0.0649935   -0.1717300 
   9.200000000    -0.0588466   -0.1216731    -0.0040940    0.0032441    -0.0040636    0.0032365    -0.0783854   -0.1705042 
   9.220000000    -0.0929774   -0.0450378     0.0039925    0.0053930     0.0039738    0.0052918    -0.0984644   -0.1656106 
   9.240000000    -0.0932796   -0.0222981     0.0047179   -0.0049422     0.0045296   -0.0047729    -0.0994936   -0.1556366 
   9.260000000    -0.0821170   -0.0097340    -0.0044190   -0.0041372    -0.0042129   -0.0041656    -0.0850402   -0.1171475 
   9.280000000    -0.0708673    0.0245733    -0.0042479    0.0036218    -0.0042861    0.0036288    -0.1158409   -0.1501628 
   9.300000000    -0.0955235    0.0836471     0.0036656    0.0050253     0.0036591    0.0050087    -0.1601703   -0.1343757 
   9.320000000    -0.0751478    0.0857656     0.0042855   -0.0043793     0.0041560   -0.0042876    -0.1239620   -0.0932686 
   9.340000000    -0.0544862    0.0526755    -0.0036765   -0.0030616    -0.0033823   -0.0030320    -0.1260281   -0.1109784 
   9.360000000     0.0204524    0.0965674    -0.0026179    0.0016839    -0.0027442    0.0015014    -0.1586171   -0.1272284 
   9.380000000     0.0308917    0.0603912     0.0003969    0.0037985     0.0002818    0.0037790    -0.1712589   -0.1141085 
   9.400000000    -0.0048882    0.0530503     0.0044866   -0.0002266     0.0045417   -0.0002793    -0.1571430   -0.0820558 
   9.420000000     0.0690997    0.0271210    -0.0002097   -0.0045747    -0.0001283   -0.0045081    -0.2005125   -0.0788219 
   9.440000000     0.0224906    0.0039322    -0.0041640   -0.0008439    -0.0044031   -0.0010935    -0.1977880   -0.0639761 
   9.460000000    -0.0261224    0.0488027    -0.0018887    0.0051770    -0.0018706    0.0055500    -0.1935751   -0.0438540 
   9.480000000     0.0272497    0.0051068     0.0068065    0.0017763     0.0068551    0.0017632    -0.2095287   -0.0410709 
   9.500000000    -0.0088841   -0.0132158     0.0003959   -0.0070741     0.0005157   -0.0072221    -0.2282584    0.0189349 
   9.520000000    -0.0232786    0.0318946    -0.0059005   -0.0003842    -0.0060994   -0.0002364    -0.1881466    0.0187914 
   9.540000000    -0.0189772    0.0073229    -0.0010038    0.0057866    -0.0006447    0.0059645    -0.1884817    0.0060126 
   9.560000000     0.0020209    0.0027697     0.0060519    0.0011567     0.0060373    0.0008815    -0.2072077    0.0105732 
   9.580000000     0.0387498    0.0373141     0.0000718   -0.0058507    -0.0000402   -0.0056737    -0.2098761    0.0596781 
   9.600000000     0.0114199    0.0680660    -0.0040209   -0.0002508    -0.0038660   -0.0002490    -0.1637012    0.0427900 
   9.620000000     0.0116754    0.0087681    -0.0016990    0.0033380    -0.0016766    0.0030437    -0.2148358    0.0430971 
   9.640000000     0.0091363   -0.0521963     0.0034752    0.0029577     0.0032898    0.0032292    -0.2212724    0.0895818 
   9.660000000    -0.0038296   -0.0303298     0.0031622   -0.0042391     0.0033542   -0.0041915    -0.2046423    0.1058372 
   9.680000000    -0.0174005   -0.0479819    -0.0036540   -0.0029271    -0.0036800   -0.0031875    -0.1862928    0.0907404 
   9.700000000    -0.0273962   -0.0592335    -0.0036516    0.0029470    -0.0038870    0.0031149    -0.2305726    0.1463681 
   9.720000000    -0.0049799   -0.0362890     0.0033490    0.0050191     0.0035693    0.0051496    -0.1559726    0.1522920 
   9.740000000    -0.1131068   -0.0361217     0.0049605   -0.0046776     0.0050222   -0.0049505    -0.1700368    0.1455932 
   9.760000000    -0.1894526    0.0165661    -0.0050280   -0.0039140    -0.0052431   -0.0038543    -0.1714990    0.1646465 
   9.780000000    -0.1155464    0.0693060    -0.0027896    0.0043135    -0.0026886    0.0044886    -0.1592933    0.1910705 
   9.800000000    -0.0655670    0.0814642     0.0031176    0.0033083     0.0034081    0.0031365    -0.0991072    0.1858963 
   9.820000000    -0.1058516    0.1161410     0.0034314   -0.0031565     0.0031351   -0.0033503    -0.1393203    0.1568522 
   9.840000000    -0.0635267    0.1267953    -0.0032377   -0.0030714    -0.0031879   -0.0026764    -0.1601561    0.2347388 
   9.860000000     0.0102286    0.1346602    -0.0019470    0.0021892    -0.0016385    0.0020839    -0.0995530    0.2059850 
   9.880000000     0.0822311    0.1711116     0.0004601    0.0023677     0.0002059    0.0020878    -0.0981948    0.2153365 
   9.900000000     0.1116158    0.1267952     0.0034549    0.0002254     0.0033238    0.0005027    -0.1066365    0.2434206 
   9.920000000     0.1150021    0.0303856     0.0000057   -0.0042379     0.0003165   -0.0042401    -0.0681635    0.2651331 
   9.940000000     0.1077290   -0.0096960    -0.0039615    0.0003184    -0.0040928    0.0001840    -0.0538711    0.2297295 
   9.960000000     0.0714019   -0.0337671    -0.0003497    0.0036121    -0.0005234    0.0037631    -0.0418511    0.2689953 
   9.980000000     0.0457504   -0.0858717     0.0041247    0.0012805     0.0042452    0.0013301    -0.0064823    0.2943660 
  10.000000000     0.0583716   -0.1214428     0.0006304   -0.0052038     0.0007294   -0.0054146     0.0112571    0.2466685 
