! 4/11/2025 3:25:18 PM
! C:\ANRITSUVNA\LELEC2350\LAB1_2025\GROUP1_5.S2P
! CHANNEL.1
! TR.MEASUREMENT
! CORRECTED.DATA
! RF.CORRECTION: FULL.TWO.PORT.CAL.PORT.1.2
! AVERAGING.OFF
! IF.BANDWIDTH: 300HZ
! SWEEPTYPE:  FREQ.SWEEP(Linear)
! Reference Plane Port Info
! PORT:              PORT1              PORT2             
! DISTANCE:          0  m               0  m              
! TIME:              0  s               0  s              
! PHASE.OFFSET:      0 °                0 °               
! LOSS:              0  dB              0  dB             
! REF.LOSS:          0  dB              0  dB             
! REF.FREQ:          0  Hz              0  Hz             
! Power Info
! POWER:             5  dBm             5  dBm            
! EFF.POWER:         5  dBm             5  dBm            
# GHZ S RI R 50.0
! FREQ.GHZ         S11RE         S11IM         S21RE         S21IM         S12RE         S12IM         S22RE         S22IM         
!; PortSelection: Port_12
   7.000000000    -0.0767553   -0.0313000    -0.0110624    0.0080933    -0.0110796    0.0080351    -0.0409207   -0.0963220 
   7.020000000    -0.0927144    0.0408018     0.0079452    0.0111657     0.0077730    0.0113306    -0.0263794   -0.1245380 
   7.040000000    -0.0269577    0.0792427     0.0114102   -0.0078791     0.0113085   -0.0073904    -0.0679028   -0.1215276 
   7.060000000    -0.0265849    0.0372820    -0.0073934   -0.0117506    -0.0073607   -0.0116453    -0.0658333   -0.0938631 
   7.080000000    -0.0072885    0.0594437    -0.0116566    0.0078920    -0.0116829    0.0080712    -0.0588604   -0.0900938 
   7.100000000     0.0664806    0.0715461     0.0070655    0.0105055     0.0070451    0.0106489    -0.0622158   -0.1041588 
   7.120000000     0.0856942    0.0499064     0.0106128   -0.0057195     0.0109026   -0.0057127    -0.0655456   -0.0902596 
   7.140000000     0.0968022    0.0039855    -0.0048808   -0.0111079    -0.0049273   -0.0113161    -0.0881802   -0.0969096 
   7.160000000     0.0840398   -0.0830815    -0.0113571    0.0044180    -0.0114834    0.0044386    -0.0935673   -0.0845435 
   7.180000000     0.0019406   -0.1131638     0.0038380    0.0109389     0.0033520    0.0111005    -0.0811092   -0.0773390 
   7.200000000    -0.0415752   -0.0898488     0.0110891   -0.0024207     0.0111327   -0.0021702    -0.0843371   -0.0880356 
   7.220000000    -0.0415519   -0.0830970    -0.0011524   -0.0113815    -0.0013663   -0.0114053    -0.1232600   -0.1024085 
   7.240000000    -0.0505486   -0.0495400    -0.0123563    0.0003212    -0.0122141    0.0004704    -0.1364590   -0.0650533 
   7.260000000    -0.0816145   -0.0134907     0.0003441    0.0128410     0.0003603    0.0127440    -0.1065226   -0.0424237 
   7.280000000    -0.1159226    0.0286626     0.0124108    0.0002121     0.0126671    0.0003922    -0.1102251   -0.0628645 
   7.300000000    -0.0740195    0.0636973     0.0005766   -0.0124900     0.0006256   -0.0127754    -0.1458988   -0.0564362 
   7.320000000    -0.0168350    0.0622110    -0.0121965   -0.0007253    -0.0122890   -0.0008700    -0.1458020   -0.0300127 
   7.340000000     0.0105431    0.0706825    -0.0012481    0.0116220    -0.0014256    0.0117000    -0.1245566   -0.0204236 
   7.360000000     0.0332799    0.0184922     0.0106665    0.0017193     0.0107329    0.0020020    -0.1384780   -0.0239645 
   7.380000000     0.0165757   -0.0045453     0.0030109   -0.0101935     0.0031021   -0.0102871    -0.1391934   -0.0325394 
   7.400000000     0.0453696    0.0366606    -0.0097224   -0.0040305    -0.0099977   -0.0041004    -0.1416187   -0.0157629 
   7.420000000     0.0556510   -0.0094784    -0.0049705    0.0094902    -0.0051585    0.0097176    -0.1689045   -0.0005021 
   7.440000000     0.0188926   -0.0411100     0.0090708    0.0055704     0.0093253    0.0058108    -0.1572710    0.0221448 
   7.460000000     0.0175738   -0.0362471     0.0069725   -0.0088069     0.0069979   -0.0088772    -0.1400879    0.0246102 
   7.480000000    -0.0162362   -0.0475971    -0.0087642   -0.0077477    -0.0089849   -0.0077338    -0.1583566   -0.0004052 
   7.500000000    -0.0296035   -0.0416593    -0.0080941    0.0088504    -0.0082492    0.0089734    -0.1743961    0.0418180 
   7.520000000     0.0018840   -0.0685114     0.0086665    0.0083977     0.0089540    0.0083170    -0.1506446    0.0634611 
   7.540000000    -0.0314504   -0.0698019     0.0082131   -0.0079651     0.0082191   -0.0082814    -0.1384161    0.0729193 
   7.560000000    -0.0800222   -0.0292612    -0.0068001   -0.0086706    -0.0071050   -0.0086451    -0.1433398    0.0386492 
   7.580000000    -0.1254973    0.0112193    -0.0095187    0.0063317    -0.0096455    0.0062871    -0.1489335    0.0808327 
   7.600000000    -0.0931213    0.0727244     0.0057589    0.0098707     0.0061499    0.0098085    -0.1490402    0.0780148 
   7.620000000    -0.0454753    0.0844036     0.0094566   -0.0054263     0.0093071   -0.0056155    -0.1469238    0.1115752 
   7.640000000    -0.0221058    0.1125017    -0.0036054   -0.0094298    -0.0035766   -0.0094375    -0.1186555    0.0890423 
   7.660000000     0.0843066    0.0751474    -0.0105594    0.0021116    -0.0107416    0.0020337    -0.1329114    0.0885934 
   7.680000000     0.0819293    0.0133537     0.0011675    0.0118311     0.0013210    0.0118983    -0.1495067    0.1171547 
   7.700000000     0.0720102    0.0188987     0.0129792   -0.0013570     0.0128193   -0.0014699    -0.1385238    0.1487487 
   7.720000000     0.0560183   -0.0735051    -0.0008649   -0.0129238    -0.0007784   -0.0127602    -0.1037337    0.1324352 
   7.740000000     0.0095515   -0.0855146    -0.0134956   -0.0001414    -0.0135818   -0.0001448    -0.1096382    0.1348170 
   7.760000000     0.0170041   -0.0624539    -0.0001643    0.0138909    -0.0000440    0.0140580    -0.1226122    0.1541627 
   7.780000000    -0.0380657   -0.0905597     0.0143011    0.0002653     0.0142699   -0.0000495    -0.1095328    0.1517347 
   7.800000000    -0.0978261   -0.0628721     0.0002706   -0.0135842     0.0001340   -0.0137650    -0.0732640    0.1739353 
   7.820000000    -0.0858902   -0.0116110    -0.0127835   -0.0011492    -0.0129834   -0.0012213    -0.0744251    0.1716714 
   7.840000000    -0.0865636    0.0282624    -0.0016435    0.0127617    -0.0016887    0.0128863    -0.0761941    0.1634574 
   7.860000000    -0.0566208    0.0671379     0.0120903    0.0022770     0.0121182    0.0023421    -0.0830514    0.1821232 
   7.880000000    -0.0165545    0.0390124     0.0031711   -0.0115081     0.0032229   -0.0117043    -0.0652071    0.1817478 
   7.900000000    -0.0098611    0.0432273    -0.0106704   -0.0043364    -0.0108867   -0.0042809    -0.0358703    0.2064681 
   7.920000000    -0.0012656    0.0545118    -0.0060765    0.0111306    -0.0058643    0.0110674    -0.0294551    0.1917872 
   7.940000000     0.0168189    0.0287640     0.0110973    0.0067431     0.0111016    0.0066749    -0.0389810    0.1743495 
   7.960000000     0.0801672    0.0055126     0.0074686   -0.0114384     0.0075959   -0.0114285    -0.0175024    0.2105674 
   7.980000000     0.0839083   -0.0420395    -0.0109902   -0.0075322    -0.0111241   -0.0078057     0.0139002    0.2365343 
   8.000000000    -0.0194322   -0.0523889    -0.0086979    0.0106154    -0.0085930    0.0106267     0.0269057    0.1836889 
   8.020000000    -0.0311916   -0.0319675     0.0106229    0.0087851     0.0108498    0.0088073     0.0362780    0.1850957 
   8.040000000    -0.0156888   -0.0660636     0.0089745   -0.0104678     0.0089857   -0.0104678     0.0275318    0.1862510 
   8.060000000    -0.0436528   -0.0431824    -0.0100479   -0.0088085    -0.0103400   -0.0087098     0.0405225    0.2103892 
   8.080000000    -0.0485979   -0.0542992    -0.0082644    0.0088513    -0.0082344    0.0090708     0.0725833    0.1925175 
   8.100000000    -0.1009281   -0.0363600     0.0076707    0.0087277     0.0077585    0.0088513     0.0597935    0.1634481 
   8.120000000    -0.1021870    0.0816496     0.0090858   -0.0065829     0.0093284   -0.0065328     0.0633058    0.1737821 
   8.140000000    -0.0370705    0.1133174    -0.0053193   -0.0101701    -0.0053780   -0.0103031     0.0586137    0.1968334 
   8.160000000    -0.0158685    0.0608389    -0.0103553    0.0046095    -0.0104003    0.0045659     0.1013828    0.1921722 
   8.180000000     0.0194786    0.0569288     0.0036770    0.0110869     0.0036098    0.0110126     0.1157958    0.1549692 
   8.200000000     0.0633643    0.0399263     0.0115208   -0.0028851     0.0115787   -0.0028516     0.1107390    0.1582589 
   8.220000000     0.0497692    0.0272529    -0.0016481   -0.0121767    -0.0018230   -0.0123727     0.1110347    0.1644843 
   8.240000000     0.0840821   -0.0155923    -0.0129520    0.0015130    -0.0130393    0.0018911     0.1469723    0.1547384 
   8.260000000     0.1028683   -0.0862275     0.0014436    0.0131884     0.0015440    0.0133475     0.1410812    0.1389169 
   8.280000000     0.0305637   -0.1027723     0.0127691   -0.0012797     0.0129987   -0.0013631     0.1405900    0.1310544 
   8.300000000    -0.0506770   -0.1033697    -0.0003288   -0.0118750    -0.0005444   -0.0119817     0.1578529    0.1050685 
   8.320000000    -0.0828706   -0.0796191    -0.0119260   -0.0006757    -0.0119028   -0.0005901     0.1190582    0.1229651 
   8.340000000    -0.0757451   -0.0459060    -0.0011102    0.0116105    -0.0010773    0.0117260     0.1452829    0.1259290 
   8.360000000    -0.1234836   -0.0511028     0.0109953    0.0020022     0.0111696    0.0019409     0.1833256    0.1031692 
   8.380000000    -0.1159526    0.0014897     0.0027251   -0.0103273     0.0025392   -0.0103902     0.1701143    0.0735341 
   8.400000000    -0.0734772    0.0222446    -0.0095633   -0.0044952    -0.0095797   -0.0043423     0.1313676    0.0893131 
   8.420000000    -0.0772814    0.1126425    -0.0056978    0.0095315    -0.0056943    0.0095932     0.1850152    0.1082314 
   8.440000000    -0.0103506    0.1250845     0.0093239    0.0068987     0.0094114    0.0069647     0.1973075    0.0707655 
   8.460000000    -0.0240948    0.0514603     0.0080950   -0.0097744     0.0078521   -0.0098187     0.1872016    0.0291251 
   8.480000000     0.0215988    0.0667880    -0.0093200   -0.0087078    -0.0093215   -0.0085450     0.1595507    0.0528054 
   8.500000000     0.0610264    0.0269969    -0.0094963    0.0097337    -0.0094300    0.0096698     0.1786343    0.0407724 
   8.520000000     0.0355922    0.0078507     0.0094005    0.0096265     0.0094657    0.0095694     0.1979108    0.0095102 
   8.540000000     0.0688823   -0.0294338     0.0100186   -0.0091956     0.0099301   -0.0092232     0.1951490    0.0237465 
   8.560000000     0.0324206   -0.0304785    -0.0083347   -0.0095710    -0.0084046   -0.0095796     0.1692754   -0.0089915 
   8.580000000     0.0135975   -0.0130300    -0.0104157    0.0075687    -0.0103707    0.0075802     0.1499011   -0.0245063 
   8.600000000    -0.0196324   -0.0721611     0.0070794    0.0105466     0.0071319    0.0104884     0.1728794    0.0274404 
   8.620000000    -0.0498138   -0.0341860     0.0104016   -0.0060195     0.0103403   -0.0059580     0.1921951    0.0079915 
   8.640000000    -0.0411667   -0.0065876    -0.0048786   -0.0107165    -0.0047725   -0.0106616     0.1914395   -0.0537374 
   8.660000000    -0.0873774   -0.0091382    -0.0114324    0.0031489    -0.0114132    0.0030363     0.1455211   -0.0505822 
   8.680000000    -0.0464145    0.0261063     0.0025364    0.0126013     0.0024188    0.0125672     0.1765373   -0.0228606 
   8.700000000     0.0246674    0.0069577     0.0129625   -0.0022435     0.0130650   -0.0021692     0.1887407   -0.0478948 
   8.720000000    -0.0252010    0.0239410    -0.0014579   -0.0133628    -0.0014270   -0.0134041     0.1608796   -0.0970657 
   8.740000000    -0.0250642    0.0824187    -0.0134946    0.0010247    -0.0136408    0.0009916     0.1374202   -0.0948210 
   8.760000000     0.0221956    0.0179953     0.0004450    0.0139705     0.0004561    0.0140735     0.1555845   -0.0828772 
   8.780000000     0.0070439    0.0201284     0.0139094   -0.0005127     0.0140251   -0.0004924     0.1122902   -0.0866310 
   8.800000000     0.0267403    0.0030641     0.0001381   -0.0134797     0.0000380   -0.0135597     0.1175832   -0.0987257 
   8.820000000     0.0064448   -0.0802802    -0.0128130   -0.0001601    -0.0128958   -0.0000770     0.1557915   -0.1060118 
   8.840000000    -0.0130869   -0.0340588    -0.0012500    0.0120208    -0.0012113    0.0120693     0.0958383   -0.1253909 
   8.860000000     0.0026408    0.0242512     0.0114468    0.0019432     0.0114987    0.0018929     0.0932277   -0.1127698 
   8.880000000    -0.0283124   -0.0322318     0.0030466   -0.0106348     0.0030249   -0.0106638     0.1309766   -0.1020130 
   8.900000000    -0.0628668   -0.0571407    -0.0101296   -0.0041775    -0.0102760   -0.0041704     0.1313876   -0.1509778 
   8.920000000    -0.0668103   -0.0274414    -0.0053970    0.0097126    -0.0053693    0.0097480     0.0693963   -0.1509102 
   8.940000000    -0.1003593    0.0308914     0.0094769    0.0063948     0.0094441    0.0063112     0.0641762   -0.1452949 
   8.960000000    -0.0701663    0.0693257     0.0069167   -0.0092998     0.0069552   -0.0092554     0.0703308   -0.1420240 
   8.980000000    -0.0241823    0.0507620    -0.0084965   -0.0078232    -0.0085506   -0.0078389     0.0811424   -0.1756239 
   9.000000000    -0.0113846    0.0535554    -0.0085645    0.0080991    -0.0084948    0.0080883     0.0223071   -0.1656290 
   9.020000000    -0.0274080    0.0555593     0.0081428    0.0091979     0.0080532    0.0092351     0.0233376   -0.1636421 
   9.040000000    -0.0146987    0.0791484     0.0092082   -0.0080716     0.0092543   -0.0080347     0.0168721   -0.1650042 
   9.060000000     0.0693111    0.0786710    -0.0067371   -0.0089157    -0.0067155   -0.0090038     0.0206646   -0.1199050 
   9.080000000     0.0725565    0.0298044    -0.0094659    0.0056359    -0.0096046    0.0056086     0.0105342   -0.1989015 
   9.100000000     0.0281126   -0.0060994     0.0045799    0.0101568     0.0045791    0.0102419    -0.0070188   -0.1713683 
   9.120000000     0.0536765   -0.0425360     0.0106897   -0.0041356     0.0108994   -0.0041576    -0.0253557   -0.1412759 
   9.140000000     0.0435050   -0.0434402    -0.0035872   -0.0105494    -0.0035924   -0.0106171    -0.0233726   -0.1593252 
   9.160000000     0.0255835   -0.0010934    -0.0103817    0.0023859    -0.0105239    0.0024363    -0.0238961   -0.1920085 
   9.180000000     0.0064984   -0.0859045     0.0009120    0.0108188     0.0009493    0.0108918    -0.0733767   -0.1827962 
   9.200000000    -0.0515333   -0.1107988     0.0116249   -0.0003007     0.0117249   -0.0002524    -0.0864802   -0.1626242 
   9.220000000    -0.0844577   -0.0532373     0.0000914   -0.0119046     0.0000563   -0.0119758    -0.0965821   -0.1573654 
   9.240000000    -0.0996348   -0.0306896    -0.0117332   -0.0005555    -0.0117340   -0.0005519    -0.0877960   -0.1550477 
   9.260000000    -0.0888292   -0.0014815    -0.0012610    0.0113826    -0.0013010    0.0113914    -0.0825595   -0.1321309 
   9.280000000    -0.0631034    0.0309358     0.0113174    0.0023041     0.0114177    0.0022059    -0.1291930   -0.1494934 
   9.300000000    -0.0883702    0.0749196     0.0026732   -0.0113534     0.0026166   -0.0114623    -0.1623552   -0.1280029 
   9.320000000    -0.0817569    0.0794223    -0.0105306   -0.0028548    -0.0105951   -0.0028089    -0.1183815   -0.0855681 
   9.340000000    -0.0615471    0.0609647    -0.0038326    0.0097930    -0.0037124    0.0098635    -0.1156786   -0.1194614 
   9.360000000     0.0284743    0.1015972     0.0092569    0.0046942     0.0092977    0.0046444    -0.1704805   -0.1361883 
   9.380000000     0.0372420    0.0502848     0.0056042   -0.0087706     0.0055943   -0.0087545    -0.1789096   -0.1062244 
   9.400000000    -0.0128686    0.0493249    -0.0081337   -0.0060517    -0.0081009   -0.0061067    -0.1556379   -0.0723918 
   9.420000000     0.0626559    0.0350810    -0.0071926    0.0071976    -0.0071588    0.0071937    -0.1860905   -0.0754542 
   9.440000000     0.0325777    0.0080418     0.0063029    0.0083159     0.0063645    0.0083666    -0.1969553   -0.0805986 
   9.460000000    -0.0211097    0.0394865     0.0097518   -0.0061753     0.0098406   -0.0061686    -0.2061345   -0.0412157 
   9.480000000     0.0171987    0.0034351    -0.0066219   -0.0102779    -0.0066189   -0.0103430    -0.2121154   -0.0344374 
   9.500000000    -0.0129090   -0.0045982    -0.0103563    0.0061945    -0.0105015    0.0062106    -0.2178281    0.0306599 
   9.520000000    -0.0139836    0.0361700     0.0053859    0.0103853     0.0054905    0.0104460    -0.1769149    0.0029118 
   9.540000000    -0.0153684   -0.0017684     0.0110545   -0.0045361     0.0110863   -0.0046426    -0.2017903   -0.0007186 
   9.560000000    -0.0079027    0.0008182    -0.0046482   -0.0117433    -0.0048051   -0.0118371    -0.2152021    0.0182686 
   9.580000000     0.0356977    0.0453883    -0.0109535    0.0046690    -0.0109826    0.0047578    -0.2069526    0.0712585 
   9.600000000     0.0220566    0.0721839     0.0035481    0.0102057     0.0037180    0.0102464    -0.1480137    0.0392117 
   9.620000000     0.0142071   -0.0029791     0.0100852   -0.0019930     0.0100877   -0.0020985    -0.2212348    0.0291789 
   9.640000000    -0.0032068   -0.0530866    -0.0003493   -0.0106160    -0.0004095   -0.0105910    -0.2323896    0.0950287 
   9.660000000    -0.0023600   -0.0206092    -0.0110234    0.0000156    -0.0110277    0.0001056    -0.2049980    0.1153430 
   9.680000000    -0.0079978   -0.0474296    -0.0009797    0.0109735    -0.0008678    0.0109062    -0.1734349    0.0984634 
   9.700000000    -0.0277780   -0.0717014     0.0108900    0.0016290     0.0108415    0.0015424    -0.2236184    0.1315928 
   9.720000000    -0.0158185   -0.0354046     0.0027086   -0.0108103     0.0025723   -0.0107350    -0.1681074    0.1474382 
   9.740000000    -0.1084826   -0.0260321    -0.0117833   -0.0031085    -0.0115847   -0.0030106    -0.1747448    0.1532921 
   9.760000000    -0.1814029    0.0139623    -0.0031403    0.0113559    -0.0030918    0.0111169    -0.1678509    0.1764995 
   9.780000000    -0.1189914    0.0591037     0.0111378    0.0029004     0.0109515    0.0029971    -0.1416274    0.1863727 
   9.800000000    -0.0758001    0.0845928     0.0028855   -0.0101023     0.0029200   -0.0100471    -0.1068777    0.1713295 
   9.820000000    -0.1010034    0.1255457    -0.0092883   -0.0037032    -0.0092415   -0.0037865    -0.1484429    0.1604085 
   9.840000000    -0.0571684    0.1224568    -0.0037237    0.0082394    -0.0038196    0.0080784    -0.1627710    0.2442505 
   9.860000000     0.0064148    0.1266966     0.0069213    0.0042303     0.0068626    0.0043692    -0.0873824    0.2118005 
   9.880000000     0.0738595    0.1744512     0.0052907   -0.0057245     0.0053029   -0.0056230    -0.0921412    0.1993461 
   9.900000000     0.1153136    0.1342467    -0.0044110   -0.0063038    -0.0043892   -0.0061695    -0.1176675    0.2406874 
   9.920000000     0.1198282    0.0262651    -0.0072962    0.0040531    -0.0073968    0.0039345    -0.0745481    0.2734883 
   9.940000000     0.1047168   -0.0143418     0.0032951    0.0080417     0.0032488    0.0081364    -0.0475412    0.2413530 
   9.960000000     0.0646230   -0.0308434     0.0088613   -0.0029011     0.0088378   -0.0028243    -0.0256523    0.2587094 
   9.980000000     0.0481547   -0.0781655    -0.0022637   -0.0089641    -0.0021978   -0.0089754    -0.0157770    0.2856083 
  10.000000000     0.0648662   -0.1247758    -0.0096519    0.0018068    -0.0097664    0.0016209     0.0058352    0.2492500 
