! 4/11/2025 3:37:11 PM
! C:\ANRITSUVNA\LELEC2350\LAB1_2025\GROUP1_NO_ARGO.S2P
! CHANNEL.1
! TR.MEASUREMENT
! CORRECTED.DATA
! RF.CORRECTION: FULL.TWO.PORT.CAL.PORT.1.2
! AVERAGING.OFF
! IF.BANDWIDTH: 300HZ
! SWEEPTYPE:  FREQ.SWEEP(Linear)
! Reference Plane Port Info
! PORT:              PORT1              PORT2             
! DISTANCE:          0  m               0  m              
! TIME:              0  s               0  s              
! PHASE.OFFSET:      0 °                0 °               
! LOSS:              0  dB              0  dB             
! REF.LOSS:          0  dB              0  dB             
! REF.FREQ:          0  Hz              0  Hz             
! Power Info
! POWER:             5  dBm             5  dBm            
! EFF.POWER:         5  dBm             5  dBm            
# GHZ S RI R 50.0
! FREQ.GHZ         S11RE         S11IM         S21RE         S21IM         S12RE         S12IM         S22RE         S22IM         
!; PortSelection: Port_12
   7.000000000    -0.0828876   -0.0235721    -0.0097224    0.0130832    -0.0097608    0.0130629    -0.0488355   -0.1016098 
   7.020000000    -0.0906886    0.0452785     0.0128165    0.0102324     0.0128681    0.0105568    -0.0358013   -0.1183636 
   7.040000000    -0.0194142    0.0659365     0.0104706   -0.0128808     0.0105146   -0.0125923    -0.0594054   -0.1110907 
   7.060000000    -0.0259971    0.0344504    -0.0125175   -0.0107187    -0.0124838   -0.0105702    -0.0553453   -0.1012542 
   7.080000000    -0.0134541    0.0634049    -0.0105884    0.0121918    -0.0105746    0.0124717    -0.0636850   -0.0999905 
   7.100000000     0.0617812    0.0678118     0.0112738    0.0103816     0.0112643    0.0105918    -0.0730428   -0.1039770 
   7.120000000     0.0929315    0.0465911     0.0109149   -0.0101941     0.0111737   -0.0104412    -0.0668674   -0.0771856 
   7.140000000     0.1026923    0.0054513    -0.0094447   -0.0113316    -0.0096318   -0.0115052    -0.0756740   -0.0949933 
   7.160000000     0.0786603   -0.0862187    -0.0117913    0.0086662    -0.0119753    0.0086986    -0.0908705   -0.0943767 
   7.180000000    -0.0065640   -0.1217667     0.0081720    0.0119183     0.0075829    0.0123935    -0.0883385   -0.0833069 
   7.200000000    -0.0424254   -0.0848440     0.0125696   -0.0068054     0.0127372   -0.0066481    -0.0933450   -0.0806937 
   7.220000000    -0.0376377   -0.0759618    -0.0058547   -0.0131220    -0.0061400   -0.0129941    -0.1146823   -0.0909958 
   7.240000000    -0.0516673   -0.0561782    -0.0139533    0.0051681    -0.0137608    0.0053283    -0.1263805   -0.0716945 
   7.260000000    -0.0845432   -0.0228292     0.0049199    0.0144437     0.0049532    0.0144027    -0.1092815   -0.0526914 
   7.280000000    -0.1165220    0.0339575     0.0145682   -0.0043819     0.0149402   -0.0044106    -0.1207203   -0.0638783 
   7.300000000    -0.0776323    0.0719647    -0.0042815   -0.0143807    -0.0044519   -0.0147212    -0.1490743   -0.0418100 
   7.320000000    -0.0169120    0.0608156    -0.0139042    0.0038132    -0.0139436    0.0038082    -0.1316649   -0.0288713 
   7.340000000     0.0187452    0.0604673     0.0028982    0.0132915     0.0028376    0.0133739    -0.1210801   -0.0317554 
   7.360000000     0.0262910    0.0183667     0.0127676   -0.0018735     0.0127955   -0.0016935    -0.1475171   -0.0315665 
   7.380000000     0.0027733    0.0023870    -0.0007643   -0.0127274    -0.0008005   -0.0128072    -0.1504787   -0.0227998 
   7.400000000     0.0460790    0.0346513    -0.0121761   -0.0002271    -0.0123183   -0.0001905    -0.1326401   -0.0056742 
   7.420000000     0.0630282   -0.0121961    -0.0016536    0.0118801    -0.0018253    0.0120607    -0.1580659   -0.0062989 
   7.440000000     0.0188972   -0.0387204     0.0116994    0.0027975     0.0118030    0.0030236    -0.1610815    0.0110490 
   7.460000000     0.0117933   -0.0369617     0.0044975   -0.0120482     0.0044162   -0.0120549    -0.1532963    0.0258162 
   7.480000000    -0.0138283   -0.0471962    -0.0124223   -0.0049772    -0.0124461   -0.0049138    -0.1580318    0.0151299 
   7.500000000    -0.0274115   -0.0373423    -0.0052448    0.0121483    -0.0054143    0.0121692    -0.1607314    0.0428419 
   7.520000000    -0.0049866   -0.0618961     0.0119213    0.0060359     0.0120971    0.0059523    -0.1463294    0.0522113 
   7.540000000    -0.0307136   -0.0778549     0.0062280   -0.0114973     0.0062821   -0.0117996    -0.1487697    0.0663109 
   7.560000000    -0.0809320   -0.0353054    -0.0108772   -0.0065606    -0.0110814   -0.0065197    -0.1518763    0.0494898 
   7.580000000    -0.1216937    0.0254984    -0.0069479    0.0099816    -0.0072125    0.0099666    -0.1392472    0.0893467 
   7.600000000    -0.0946957    0.0690383     0.0089274    0.0077970     0.0092556    0.0077901    -0.1381356    0.0722385 
   7.620000000    -0.0512670    0.0808238     0.0080615   -0.0081887     0.0080373   -0.0083124    -0.1509187    0.0986659 
   7.640000000    -0.0075684    0.1174505    -0.0067604   -0.0090271    -0.0067859   -0.0090742    -0.1338694    0.0916252 
   7.660000000     0.0812926    0.0737906    -0.0100640    0.0057195    -0.0103801    0.0057442    -0.1313389    0.1041536 
   7.680000000     0.0756672    0.0159458     0.0045727    0.0115653     0.0046874    0.0116943    -0.1358997    0.1184224 
   7.700000000     0.0786941    0.0124433     0.0132453   -0.0047992     0.0131553   -0.0048506    -0.1340087    0.1367233 
   7.720000000     0.0545810   -0.0699486    -0.0048268   -0.0136476    -0.0046691   -0.0136328    -0.1173589    0.1264606 
   7.740000000     0.0045231   -0.0792916    -0.0143146    0.0041852    -0.0144752    0.0042918    -0.1172925    0.1473889 
   7.760000000     0.0167768   -0.0686536     0.0041849    0.0143025     0.0044166    0.0145572    -0.1115118    0.1633950 
   7.780000000    -0.0307818   -0.0917162     0.0147839   -0.0038159     0.0147710   -0.0042485    -0.0984875    0.1448802 
   7.800000000    -0.0958111   -0.0600275    -0.0035779   -0.0144241    -0.0038858   -0.0146210    -0.0795643    0.1615853 
   7.820000000    -0.1005340   -0.0105026    -0.0139463    0.0029548    -0.0142298    0.0030573    -0.0865961    0.1750250 
   7.840000000    -0.0834416    0.0313918     0.0024418    0.0134594     0.0025909    0.0136066    -0.0747813    0.1773591 
   7.860000000    -0.0428865    0.0655496     0.0128403   -0.0012572     0.0128675   -0.0011591    -0.0701963    0.1823513 
   7.880000000    -0.0200500    0.0376585     0.0000301   -0.0125313     0.0000419   -0.0127387    -0.0625999    0.1689428 
   7.900000000    -0.0173297    0.0375745    -0.0122146   -0.0015708    -0.0124671   -0.0015083    -0.0470551    0.1999279 
   7.920000000     0.0005639    0.0520251    -0.0031102    0.0131194    -0.0028691    0.0130790    -0.0399109    0.2056522 
   7.940000000     0.0251918    0.0390819     0.0130023    0.0039273     0.0130607    0.0038983    -0.0279485    0.1838904 
   7.960000000     0.0814899    0.0007018     0.0050047   -0.0136622     0.0051348   -0.0137250    -0.0063759    0.2036389 
   7.980000000     0.0749048   -0.0585283    -0.0136866   -0.0052677    -0.0139387   -0.0054364     0.0087570    0.2235311 
   8.000000000    -0.0183010   -0.0519176    -0.0063503    0.0137704    -0.0061518    0.0138008     0.0114025    0.1881474 
   8.020000000    -0.0298155   -0.0238819     0.0137827    0.0061142     0.0140415    0.0059887     0.0414927    0.1995893 
   8.040000000    -0.0231601   -0.0641629     0.0062714   -0.0135381     0.0062754   -0.0135036     0.0419595    0.1872531 
   8.060000000    -0.0399236   -0.0508837    -0.0128366   -0.0062570    -0.0130765   -0.0061241     0.0453782    0.1943334 
   8.080000000    -0.0440474   -0.0594662    -0.0061166    0.0115157    -0.0060380    0.0117977     0.0575630    0.1873897 
   8.100000000    -0.1101211   -0.0327339     0.0104635    0.0067778     0.0106337    0.0068958     0.0545236    0.1766612 
   8.120000000    -0.1088569    0.0853914     0.0074621   -0.0091958     0.0076753   -0.0092364     0.0735322    0.1828324 
   8.140000000    -0.0257955    0.1101124    -0.0081224   -0.0089039    -0.0082910   -0.0090208     0.0705709    0.1863381 
   8.160000000    -0.0073697    0.0606689    -0.0094627    0.0073366    -0.0094743    0.0074108     0.0915270    0.1795353 
   8.180000000     0.0091505    0.0541301     0.0066898    0.0106337     0.0066548    0.0104831     0.1020491    0.1618954 
   8.200000000     0.0545357    0.0350440     0.0113349   -0.0061222     0.0113454   -0.0061180     0.1143275    0.1743657 
   8.220000000     0.0537495    0.0305593    -0.0052052   -0.0120618    -0.0054747   -0.0121861     0.1264367    0.1626218 
   8.240000000     0.0855781   -0.0077610    -0.0127203    0.0051548    -0.0126504    0.0055332     0.1500801    0.1392092 
   8.260000000     0.0982247   -0.0952117     0.0048458    0.0129134     0.0050155    0.0129248     0.1266001    0.1361532 
   8.280000000     0.0235958   -0.1153475     0.0127624   -0.0044681     0.0129612   -0.0045710     0.1347106    0.1445825 
   8.300000000    -0.0519489   -0.0923096    -0.0036573   -0.0122773    -0.0038300   -0.0122987     0.1718802    0.1134375 
   8.320000000    -0.0792761   -0.0698008    -0.0121141    0.0027924    -0.0120252    0.0028493     0.1300153    0.1107101 
   8.340000000    -0.0795772   -0.0534785     0.0017753    0.0116201     0.0018361    0.0116501     0.1353312    0.1143128 
   8.360000000    -0.1208850   -0.0504362     0.0114134   -0.0004393     0.0116247   -0.0005188     0.1683781    0.1106081 
   8.380000000    -0.1132070    0.0038912     0.0005214   -0.0112548     0.0003578   -0.0111454     0.1765890    0.0864496 
   8.400000000    -0.0847239    0.0247148    -0.0110139   -0.0021603    -0.0109440   -0.0020789     0.1464906    0.0881112 
   8.420000000    -0.0725883    0.1077482    -0.0032935    0.0109248    -0.0034100    0.0108866     0.1838112    0.0929219 
   8.440000000    -0.0043127    0.1223577     0.0109470    0.0047650     0.0109938    0.0049114     0.1821882    0.0688723 
   8.460000000    -0.0244691    0.0634097     0.0061010   -0.0115915     0.0059380   -0.0116065     0.1832441    0.0430568 
   8.480000000     0.0131336    0.0593033    -0.0116270   -0.0067210    -0.0115405   -0.0066587     0.1717542    0.0623799 
   8.500000000     0.0569170    0.0262522    -0.0071818    0.0118983    -0.0072809    0.0118346     0.1874723    0.0268339 
   8.520000000     0.0432742    0.0120617     0.0114493    0.0074593     0.0115796    0.0074141     0.1887102   -0.0008440 
   8.540000000     0.0573229   -0.0238821     0.0082166   -0.0111287     0.0081445   -0.0111595     0.1823535    0.0310012 
   8.560000000     0.0333800   -0.0289279    -0.0105065   -0.0082293    -0.0105626   -0.0082817     0.1715810    0.0060957 
   8.580000000     0.0207478   -0.0209919    -0.0087797    0.0098818    -0.0088409    0.0098988     0.1661643   -0.0272462 
   8.600000000    -0.0244448   -0.0613609     0.0090058    0.0091896     0.0090117    0.0091844     0.1721433    0.0116897 
   8.620000000    -0.0493456   -0.0310344     0.0097981   -0.0077193     0.0097573   -0.0077167     0.1753869    0.0072549 
   8.640000000    -0.0422956   -0.0175040    -0.0069995   -0.0104077    -0.0069629   -0.0104256     0.1873836   -0.0364398 
   8.660000000    -0.0830244    0.0008661    -0.0113774    0.0055748    -0.0114351    0.0055466     0.1627783   -0.0432916 
   8.680000000    -0.0451612    0.0350572     0.0050287    0.0124464     0.0049883    0.0125243     0.1842711   -0.0384328 
   8.700000000     0.0174486   -0.0029705     0.0132157   -0.0045341     0.0133387   -0.0045019     0.1764141   -0.0555568 
   8.720000000    -0.0211356    0.0130603    -0.0041238   -0.0140479    -0.0041338   -0.0140181     0.1482478   -0.0876293 
   8.740000000    -0.0177119    0.0869783    -0.0142239    0.0039027    -0.0142862    0.0038794     0.1449826   -0.0825903 
   8.760000000     0.0199128    0.0256134     0.0033667    0.0144413     0.0034284    0.0145744     0.1688099   -0.0870732 
   8.780000000     0.0088578    0.0129162     0.0143633   -0.0030327     0.0143962   -0.0030658     0.1100144   -0.1019051 
   8.800000000     0.0326382   -0.0053701    -0.0023241   -0.0141779    -0.0023944   -0.0142582     0.1018350   -0.0988961 
   8.820000000     0.0012395   -0.0757040    -0.0135746    0.0020586    -0.0136621    0.0021240     0.1528972   -0.0892683 
   8.840000000    -0.0256039   -0.0308068     0.0009151    0.0130561     0.0008772    0.0131288     0.1104071   -0.1185451 
   8.860000000     0.0102344    0.0205007     0.0125719    0.0001012     0.0126120    0.0001283     0.1013532   -0.1278508 
   8.880000000    -0.0121936   -0.0364505     0.0014796   -0.0120821     0.0015025   -0.0121329     0.1197648   -0.1119308 
   8.900000000    -0.0710236   -0.0561070    -0.0121180   -0.0026853    -0.0122000   -0.0026775     0.1180400   -0.1421804 
   8.920000000    -0.0773651   -0.0268252    -0.0038593    0.0118897    -0.0038283    0.0118478     0.0768391   -0.1363740 
   8.940000000    -0.0930613    0.0268359     0.0115608    0.0048157     0.0116208    0.0047903     0.0799568   -0.1524416 
   8.960000000    -0.0638725    0.0766827     0.0055262   -0.0113922     0.0056032   -0.0114211     0.0645428   -0.1583294 
   8.980000000    -0.0263382    0.0544001    -0.0111744   -0.0066746    -0.0112042   -0.0066755     0.0636445   -0.1729846 
   9.000000000    -0.0168721    0.0387197    -0.0071151    0.0108177    -0.0071188    0.0108159     0.0199914   -0.1501732 
   9.020000000    -0.0288108    0.0531097     0.0104758    0.0076239     0.0104673    0.0076075     0.0388269   -0.1594659 
   9.040000000    -0.0112277    0.0914479     0.0080931   -0.0098811     0.0082065   -0.0099152     0.0234334   -0.1782963 
   9.060000000     0.0670240    0.0764006    -0.0088815   -0.0085170    -0.0089732   -0.0086155     0.0068826   -0.1279776 
   9.080000000     0.0750492    0.0177975    -0.0092107    0.0080706    -0.0092560    0.0081101    -0.0007240   -0.1884695 
   9.100000000     0.0325921   -0.0068926     0.0071858    0.0098229     0.0071825    0.0099209     0.0039800   -0.1556569 
   9.120000000     0.0431786   -0.0381844     0.0105221   -0.0063990     0.0105586   -0.0064105    -0.0098169   -0.1506237 
   9.140000000     0.0333903   -0.0448041    -0.0057211   -0.0109110    -0.0057337   -0.0109192    -0.0302805   -0.1754747 
   9.160000000     0.0365604   -0.0067959    -0.0112147    0.0048684    -0.0113379    0.0049263    -0.0381604   -0.1918075 
   9.180000000     0.0113091   -0.0860613     0.0038770    0.0115689     0.0038975    0.0116195    -0.0736069   -0.1657876 
   9.200000000    -0.0648636   -0.1107620     0.0120552   -0.0029322     0.0120971   -0.0029830    -0.0719782   -0.1608084 
   9.220000000    -0.0967144   -0.0562115    -0.0021818   -0.0125754    -0.0021980   -0.0126213    -0.0939692   -0.1726972 
   9.240000000    -0.0927435   -0.0272325    -0.0127309    0.0015416    -0.0127592    0.0015667    -0.1003189   -0.1621425 
   9.260000000    -0.0851226    0.0027619     0.0008984    0.0126805     0.0009431    0.0127491    -0.0954944   -0.1188592 
   9.280000000    -0.0729742    0.0321040     0.0126055   -0.0001089     0.0126174   -0.0001467    -0.1176118   -0.1354972 
   9.300000000    -0.0845291    0.0709546     0.0006550   -0.0124017     0.0006552   -0.0124190    -0.1501821   -0.1375550 
   9.320000000    -0.0796523    0.0855273    -0.0121902   -0.0016377    -0.0121877   -0.0016247    -0.1225653   -0.0962538 
   9.340000000    -0.0659873    0.0745730    -0.0022824    0.0119775    -0.0022440    0.0120503    -0.1293169   -0.1171886 
   9.360000000     0.0270529    0.0909999     0.0114822    0.0029760     0.0116507    0.0029492    -0.1696274   -0.1200574 
   9.380000000     0.0420348    0.0434688     0.0039046   -0.0107843     0.0038818   -0.0108357    -0.1610098   -0.1077245 
   9.400000000    -0.0031339    0.0567445    -0.0101589   -0.0049296    -0.0101997   -0.0049255    -0.1513028   -0.0884255 
   9.420000000     0.0551022    0.0360669    -0.0062250    0.0095350    -0.0061025    0.0096221    -0.1999398   -0.0826485 
   9.440000000     0.0293214    0.0009664     0.0091096    0.0074162     0.0091724    0.0074078    -0.2092098   -0.0683516 
   9.460000000    -0.0153500    0.0389072     0.0084451   -0.0087765     0.0084163   -0.0088838    -0.1935559   -0.0305697 
   9.480000000     0.0192695    0.0125271    -0.0086874   -0.0092897    -0.0087250   -0.0092998    -0.2021667   -0.0432077 
   9.500000000    -0.0177822   -0.0110608    -0.0101066    0.0084511    -0.0100590    0.0083762    -0.2265873    0.0175709 
   9.520000000    -0.0135348    0.0268176     0.0081205    0.0105570     0.0081737    0.0105228    -0.1925484    0.0089409 
   9.540000000    -0.0077937    0.0049837     0.0108851   -0.0076000     0.0108788   -0.0076467    -0.1979687    0.0166062 
   9.560000000    -0.0148536    0.0020986    -0.0073607   -0.0112431    -0.0073250   -0.0113213    -0.1966388    0.0190567 
   9.580000000     0.0256365    0.0421551    -0.0110527    0.0066404    -0.0109924    0.0067241    -0.2057277    0.0548632 
   9.600000000     0.0426711    0.0689375     0.0058561    0.0109293     0.0058896    0.0109390    -0.1607657    0.0364405 
   9.620000000     0.0159300   -0.0037608     0.0109210   -0.0044480     0.0109170   -0.0045113    -0.2262511    0.0416659 
   9.640000000    -0.0151772   -0.0443095    -0.0031621   -0.0114650    -0.0031698   -0.0114493    -0.2192039    0.1027856 
   9.660000000     0.0008350   -0.0313882    -0.0116409    0.0022403    -0.0116605    0.0022938    -0.1982683    0.1026243 
   9.680000000    -0.0028380   -0.0453490     0.0010457    0.0121341     0.0010630    0.0121475    -0.1829025    0.0866469 
   9.700000000    -0.0221800   -0.0581349     0.0124660   -0.0003766     0.0124816   -0.0003476    -0.2382497    0.1373345 
   9.720000000    -0.0199753   -0.0461986     0.0003568   -0.0127229     0.0003307   -0.0126429    -0.1644189    0.1624895 
   9.740000000    -0.1094695   -0.0332779    -0.0131062   -0.0007130    -0.0130845   -0.0006614    -0.1621668    0.1511093 
   9.760000000    -0.1735129    0.0249743    -0.0011907    0.0128713    -0.0012446    0.0127847    -0.1662271    0.1646032 
   9.780000000    -0.1220347    0.0690485     0.0127735    0.0014900     0.0126856    0.0014332    -0.1574103    0.1830531 
   9.800000000    -0.0738667    0.0761298     0.0015967   -0.0121367     0.0015705   -0.0121598    -0.1123402    0.1871692 
   9.820000000    -0.0922269    0.1155175    -0.0114910   -0.0021982    -0.0114905   -0.0022282    -0.1345440    0.1692498 
   9.840000000    -0.0598591    0.1306744    -0.0025338    0.0101621    -0.0025601    0.0100074    -0.1539599    0.2322142 
   9.860000000    -0.0019365    0.1302950     0.0090384    0.0036011     0.0090213    0.0036697    -0.0966711    0.1995633 
   9.880000000     0.0789648    0.1628905     0.0047066   -0.0081943     0.0047575   -0.0081395    -0.1039685    0.2073973 
   9.900000000     0.1321733    0.1326507    -0.0072290   -0.0058242    -0.0070982   -0.0057762    -0.1122220    0.2534492 
   9.920000000     0.1221557    0.0266385    -0.0067769    0.0067314    -0.0067635    0.0066361    -0.0637107    0.2673579 
   9.940000000     0.0904397   -0.0211400     0.0059025    0.0079413     0.0059399    0.0081208    -0.0482476    0.2291936 
   9.960000000     0.0707860   -0.0292138     0.0088285   -0.0057176     0.0088180   -0.0057135    -0.0404173    0.2601331 
   9.980000000     0.0582149   -0.0728472    -0.0051084   -0.0092301    -0.0051258   -0.0092715    -0.0204391    0.2969874 
  10.000000000     0.0559515   -0.1239433    -0.0097355    0.0045939    -0.0098242    0.0045652     0.0158925    0.2568427 
