! 4/11/2025 3:25:59 PM
! C:\ANRITSUVNA\LELEC2350\LAB1_2025\GROUP1_10.S2P
! CHANNEL.1
! TR.MEASUREMENT
! CORRECTED.DATA
! RF.CORRECTION: FULL.TWO.PORT.CAL.PORT.1.2
! AVERAGING.OFF
! IF.BANDWIDTH: 300HZ
! SWEEPTYPE:  FREQ.SWEEP(Linear)
! Reference Plane Port Info
! PORT:              PORT1              PORT2             
! DISTANCE:          0  m               0  m              
! TIME:              0  s               0  s              
! PHASE.OFFSET:      0 °                0 °               
! LOSS:              0  dB              0  dB             
! REF.LOSS:          0  dB              0  dB             
! REF.FREQ:          0  Hz              0  Hz             
! Power Info
! POWER:             5  dBm             5  dBm            
! EFF.POWER:         5  dBm             5  dBm            
# GHZ S RI R 50.0
! FREQ.GHZ         S11RE         S11IM         S21RE         S21IM         S12RE         S12IM         S22RE         S22IM         
!; PortSelection: Port_12
   7.000000000    -0.0780912   -0.0273528    -0.0025754    0.0069823    -0.0025579    0.0068516    -0.0469847   -0.1124755 
   7.020000000    -0.0871028    0.0428004     0.0066667    0.0036299     0.0067209    0.0036354    -0.0409622   -0.1181445 
   7.040000000    -0.0241443    0.0739995     0.0038758   -0.0070849     0.0037391   -0.0069526    -0.0655450   -0.1092778 
   7.060000000    -0.0309551    0.0363437    -0.0068477   -0.0035121    -0.0066795   -0.0032058    -0.0528604   -0.0910858 
   7.080000000    -0.0064485    0.0624829    -0.0035601    0.0059099    -0.0035633    0.0058999    -0.0531363   -0.1052353 
   7.100000000     0.0709413    0.0711889     0.0049988    0.0041531     0.0051903    0.0043673    -0.0771857   -0.1096939 
   7.120000000     0.0849401    0.0450396     0.0054071   -0.0048948     0.0055105   -0.0054101    -0.0725616   -0.0783368 
   7.140000000     0.0933004    0.0048354    -0.0052255   -0.0053480    -0.0057572   -0.0050991    -0.0791659   -0.0876082 
   7.160000000     0.0871311   -0.0803213    -0.0056811    0.0047016    -0.0053516    0.0049121    -0.0807268   -0.0910244 
   7.180000000     0.0043936   -0.1168864     0.0045877    0.0058072     0.0044577    0.0058331    -0.0876792   -0.0914045 
   7.200000000    -0.0447432   -0.0939981     0.0066311   -0.0040624     0.0064467   -0.0043782    -0.0982125   -0.0833436 
   7.220000000    -0.0439109   -0.0808940    -0.0045607   -0.0065256    -0.0050203   -0.0058856    -0.1206675   -0.0895958 
   7.240000000    -0.0464145   -0.0471633    -0.0061897    0.0041042    -0.0054738    0.0042386    -0.1236218   -0.0621234 
   7.260000000    -0.0795375   -0.0186452     0.0032609    0.0059290     0.0032956    0.0054752    -0.1006486   -0.0573792 
   7.280000000    -0.1204713    0.0252947     0.0066224   -0.0022940     0.0065078   -0.0023726    -0.1247136   -0.0699145 
   7.300000000    -0.0765468    0.0673017    -0.0026869   -0.0069907    -0.0028763   -0.0067383    -0.1531530   -0.0441937 
   7.320000000    -0.0132333    0.0646955    -0.0063390    0.0024761    -0.0058914    0.0025124    -0.1374652   -0.0196251 
   7.340000000     0.0116966    0.0651043     0.0012478    0.0058360     0.0010561    0.0055393    -0.1106902   -0.0278564 
   7.360000000     0.0287529    0.0164072     0.0065152    0.0000743     0.0063631    0.0001022    -0.1452352   -0.0388141 
   7.380000000     0.0136332   -0.0012919     0.0002865   -0.0077121     0.0002065   -0.0074391    -0.1536234   -0.0278773 
   7.400000000     0.0480569    0.0386392    -0.0077615    0.0003411    -0.0075602    0.0004647    -0.1403010   -0.0004161 
   7.420000000     0.0558685   -0.0141942    -0.0000597    0.0069591    -0.0001288    0.0068317    -0.1532404    0.0019914 
   7.440000000     0.0142164   -0.0413065     0.0069738    0.0007358     0.0068743    0.0009187    -0.1522134    0.0049769 
   7.460000000     0.0169396   -0.0324392     0.0014398   -0.0074599     0.0014607   -0.0073388    -0.1561584    0.0179860 
   7.480000000    -0.0142490   -0.0479468    -0.0077170   -0.0009739    -0.0076477   -0.0009370    -0.1658408    0.0136489 
   7.500000000    -0.0311240   -0.0442279    -0.0007402    0.0067450    -0.0007931    0.0066289    -0.1640551    0.0525329 
   7.520000000    -0.0013548   -0.0671498     0.0058626    0.0014868     0.0058052    0.0013722    -0.1362437    0.0528730 
   7.540000000    -0.0312251   -0.0672387     0.0025741   -0.0054905     0.0025661   -0.0054803    -0.1480636    0.0584264 
   7.560000000    -0.0787167   -0.0295441    -0.0057958   -0.0030338    -0.0057734   -0.0031450    -0.1573684    0.0460319 
   7.580000000    -0.1255265    0.0098335    -0.0031216    0.0054350    -0.0033531    0.0054286    -0.1472372    0.0951366 
   7.600000000    -0.0962598    0.0730788     0.0049830    0.0036875     0.0051275    0.0037424    -0.1320751    0.0794475 
   7.620000000    -0.0457840    0.0875263     0.0043315   -0.0046820     0.0042626   -0.0046588    -0.1452416    0.0937362 
   7.640000000    -0.0185866    0.1126535    -0.0046944   -0.0048861    -0.0045706   -0.0050637    -0.1339554    0.0856470 
   7.660000000     0.0843762    0.0727616    -0.0050306    0.0046494    -0.0053270    0.0047452    -0.1396888    0.1015448 
   7.680000000     0.0777905    0.0137277     0.0039512    0.0050926     0.0040800    0.0052661    -0.1371144    0.1278272 
   7.700000000     0.0734666    0.0237903     0.0061368   -0.0036017     0.0061496   -0.0037544    -0.1260288    0.1371585 
   7.720000000     0.0600245   -0.0753038    -0.0039802   -0.0064228    -0.0038076   -0.0065301    -0.1130594    0.1202624 
   7.740000000     0.0061564   -0.0880931    -0.0065331    0.0037898    -0.0068648    0.0039011    -0.1227902    0.1402647 
   7.760000000     0.0145432   -0.0583459     0.0036636    0.0059721     0.0039720    0.0061893    -0.1207308    0.1691047 
   7.780000000    -0.0335847   -0.0876185     0.0059384   -0.0027252     0.0060433   -0.0030663    -0.0919769    0.1528991 
   7.800000000    -0.0954598   -0.0663817    -0.0019104   -0.0062992    -0.0023292   -0.0064148    -0.0722398    0.1576591 
   7.820000000    -0.0905934   -0.0127042    -0.0067036    0.0015283    -0.0069576    0.0017614    -0.0882739    0.1670526 
   7.840000000    -0.0874310    0.0328473     0.0016020    0.0066596     0.0020695    0.0067446    -0.0844548    0.1752798 
   7.860000000    -0.0508067    0.0696087     0.0062978   -0.0007959     0.0061347   -0.0011449    -0.0714405    0.1957799 
   7.880000000    -0.0136615    0.0347736     0.0002127   -0.0065675     0.0001060   -0.0063763    -0.0517934    0.1693047 
   7.900000000    -0.0137121    0.0415264    -0.0072504   -0.0007126    -0.0071799   -0.0008354    -0.0452642    0.1930005 
   7.920000000    -0.0017499    0.0590603    -0.0008204    0.0078588    -0.0007880    0.0079045    -0.0452020    0.1969285 
   7.940000000     0.0220846    0.0307005     0.0075418    0.0007096     0.0077079    0.0006512    -0.0366468    0.1927237 
   7.960000000     0.0826154    0.0010207     0.0014700   -0.0072947     0.0013121   -0.0074976     0.0014396    0.2097448 
   7.980000000     0.0806674   -0.0436706    -0.0075814   -0.0016855    -0.0077598   -0.0015765     0.0133533    0.2188020 
   8.000000000    -0.0184265   -0.0487548    -0.0021052    0.0074444    -0.0018439    0.0073342     0.0116974    0.1799180 
   8.020000000    -0.0278719   -0.0324849     0.0072439    0.0020498     0.0073518    0.0019100     0.0289621    0.2002977 
   8.040000000    -0.0162464   -0.0690507     0.0025980   -0.0067777     0.0023233   -0.0067428     0.0420943    0.1969935 
   8.060000000    -0.0456847   -0.0425000    -0.0068799   -0.0031361    -0.0067699   -0.0028559     0.0517460    0.1959513 
   8.080000000    -0.0466524   -0.0523744    -0.0033568    0.0065596    -0.0031735    0.0064820     0.0617686    0.1807499 
   8.100000000    -0.0990106   -0.0400369     0.0065326    0.0035045     0.0063723    0.0034000     0.0471073    0.1719848 
   8.120000000    -0.1041459    0.0783896     0.0037875   -0.0059368     0.0038573   -0.0057235     0.0677021    0.1889974 
   8.140000000    -0.0384149    0.1147116    -0.0058200   -0.0046118    -0.0055668   -0.0045702     0.0746479    0.1935809 
   8.160000000    -0.0131496    0.0620409    -0.0045501    0.0059280    -0.0046407    0.0055075     0.1010572    0.1776067 
   8.180000000     0.0212428    0.0521749     0.0056127    0.0043511     0.0051737    0.0045661     0.1016800    0.1521589 
   8.200000000     0.0600288    0.0367847     0.0045139   -0.0048931     0.0048115   -0.0045133     0.1038702    0.1720041 
   8.220000000     0.0466642    0.0292524    -0.0040260   -0.0048358    -0.0038630   -0.0052557     0.1245244    0.1728976 
   8.240000000     0.0861455   -0.0142389    -0.0055132    0.0040073    -0.0058043    0.0038565     0.1558923    0.1434924 
   8.260000000     0.1051682   -0.0907782     0.0037446    0.0051409     0.0036034    0.0057884     0.1328693    0.1272321 
   8.280000000     0.0263578   -0.1063532     0.0052985   -0.0028974     0.0059458   -0.0030256     0.1259718    0.1373851 
   8.300000000    -0.0541342   -0.1008484    -0.0023163   -0.0054059    -0.0024795   -0.0058741     0.1631758    0.1225227 
   8.320000000    -0.0803581   -0.0777309    -0.0058619    0.0017305    -0.0062466    0.0018420     0.1351330    0.1196439 
   8.340000000    -0.0744290   -0.0489629     0.0014291    0.0059191     0.0017323    0.0063908     0.1449638    0.1118524 
   8.360000000    -0.1277654   -0.0526113     0.0061141   -0.0009483     0.0064484   -0.0014330     0.1686751    0.1005665 
   8.380000000    -0.1176636    0.0050222    -0.0005255   -0.0061532    -0.0009847   -0.0061115     0.1653518    0.0878392 
   8.400000000    -0.0710129    0.0228840    -0.0063272    0.0000257    -0.0061438    0.0002577     0.1449427    0.0952643 
   8.420000000    -0.0771317    0.1105451    -0.0001278    0.0061976    -0.0000631    0.0060394     0.1911074    0.0983686 
   8.440000000    -0.0136546    0.1248115     0.0058203    0.0006268     0.0057364    0.0007074     0.1901668    0.0611830 
   8.460000000    -0.0252568    0.0546114     0.0016507   -0.0057250     0.0016229   -0.0055630     0.1749000    0.0353269 
   8.480000000     0.0241518    0.0671653    -0.0058411   -0.0023110    -0.0055937   -0.0023456     0.1646284    0.0654089 
   8.500000000     0.0599953    0.0241213    -0.0027368    0.0060204    -0.0029600    0.0059286     0.1903706    0.0387140 
   8.520000000     0.0316724    0.0084096     0.0058244    0.0029130     0.0059080    0.0030227     0.1999936   -0.0021893 
   8.540000000     0.0682489   -0.0254727     0.0037157   -0.0054769     0.0037955   -0.0055147     0.1812046    0.0194499 
   8.560000000     0.0350836   -0.0296143    -0.0055023   -0.0043374    -0.0056607   -0.0044809     0.1642180    0.0037489 
   8.580000000     0.0133541   -0.0151265    -0.0048146    0.0059509    -0.0049036    0.0061757     0.1606079   -0.0181528 
   8.600000000    -0.0231841   -0.0706300     0.0061074    0.0044874     0.0062838    0.0045298     0.1812959    0.0185374 
   8.620000000    -0.0492181   -0.0298419     0.0044480   -0.0053607     0.0043350   -0.0054102     0.1839492   -0.0035336 
   8.640000000    -0.0379500   -0.0060894    -0.0049176   -0.0048611    -0.0049160   -0.0047867     0.1808471   -0.0464956 
   8.660000000    -0.0888457   -0.0112702    -0.0054424    0.0043411    -0.0053924    0.0043710     0.1506009   -0.0397724 
   8.680000000    -0.0488798    0.0302019     0.0043833    0.0057801     0.0042968    0.0056683     0.1868182   -0.0245493 
   8.700000000     0.0281645    0.0104322     0.0058539   -0.0038061     0.0057927   -0.0038431     0.1903977   -0.0592369 
   8.720000000    -0.0226250    0.0219242    -0.0034281   -0.0062293    -0.0033331   -0.0061609     0.1478025   -0.0988211 
   8.740000000    -0.0263652    0.0809945    -0.0066223    0.0031861    -0.0067192    0.0031884     0.1352293   -0.0828418 
   8.760000000     0.0204972    0.0211331     0.0029293    0.0068287     0.0030065    0.0067740     0.1648591   -0.0775089 
   8.780000000     0.0104080    0.0226000     0.0068234   -0.0027574     0.0066748   -0.0027537     0.1212777   -0.0955754 
   8.800000000     0.0306351    0.0004051    -0.0019480   -0.0068260    -0.0019433   -0.0067436     0.1102005   -0.1092369 
   8.820000000     0.0040917   -0.0840873    -0.0072781    0.0018026    -0.0071369    0.0017636     0.1455970   -0.0980929 
   8.840000000    -0.0162856   -0.0311264     0.0016068    0.0072113     0.0015199    0.0070879     0.1003435   -0.1163916 
   8.860000000     0.0074548    0.0268574     0.0070466   -0.0015652     0.0068411   -0.0013843     0.1035699   -0.1151235 
   8.880000000    -0.0250103   -0.0361858    -0.0009062   -0.0065179    -0.0005954   -0.0064329     0.1303959   -0.1134049 
   8.900000000    -0.0648995   -0.0595423    -0.0069392    0.0001446    -0.0068703   -0.0000674     0.1185628   -0.1515627 
   8.920000000    -0.0678676   -0.0257127     0.0001328    0.0068542    -0.0001946    0.0069269     0.0684116   -0.1388974 
   8.940000000    -0.0973531    0.0315205     0.0065840   -0.0000658     0.0066740    0.0000901     0.0754352   -0.1422518 
   8.960000000    -0.0679973    0.0675702     0.0002674   -0.0056274     0.0005176   -0.0057302     0.0753244   -0.1513061 
   8.980000000    -0.0246126    0.0494404    -0.0051975   -0.0014926    -0.0053983   -0.0016618     0.0717987   -0.1813903 
   9.000000000    -0.0113338    0.0539612    -0.0021621    0.0052922    -0.0022744    0.0054864     0.0178167   -0.1577637 
   9.020000000    -0.0260493    0.0553803     0.0053935    0.0026196     0.0056975    0.0026122     0.0297562   -0.1577018 
   9.040000000    -0.0141216    0.0769093     0.0027127   -0.0052413     0.0026952   -0.0053911     0.0238498   -0.1687668 
   9.060000000     0.0683023    0.0777662    -0.0044070   -0.0030729    -0.0046663   -0.0029977     0.0189408   -0.1292621 
   9.080000000     0.0721555    0.0302924    -0.0041890    0.0042454    -0.0039662    0.0044022     0.0022343   -0.1977503 
   9.100000000     0.0301049   -0.0070128     0.0044429    0.0045057     0.0046101    0.0043663    -0.0083346   -0.1628775 
   9.120000000     0.0535702   -0.0462552     0.0045507   -0.0044808     0.0043369   -0.0045054    -0.0177204   -0.1383621 
   9.140000000     0.0398365   -0.0446154    -0.0042107   -0.0043679    -0.0040601   -0.0042107    -0.0184015   -0.1675130 
   9.160000000     0.0258146    0.0013820    -0.0046754    0.0033639    -0.0047334    0.0032390    -0.0317471   -0.1967768 
   9.180000000     0.0088367   -0.0865739     0.0033201    0.0050006     0.0031779    0.0050953    -0.0782864   -0.1763709 
   9.200000000    -0.0525367   -0.1148386     0.0049899   -0.0028649     0.0051403   -0.0028497    -0.0807298   -0.1543218 
   9.220000000    -0.0880535   -0.0531462    -0.0024556   -0.0049678    -0.0023752   -0.0051201    -0.0877532   -0.1616309 
   9.240000000    -0.0998999   -0.0281586    -0.0051493    0.0015603    -0.0053679    0.0016016    -0.0916298   -0.1641763 
   9.260000000    -0.0874113   -0.0019104     0.0011464    0.0055688     0.0013823    0.0058369    -0.0911939   -0.1290620 
   9.280000000    -0.0637465    0.0293141     0.0058001   -0.0009155     0.0058462   -0.0011503    -0.1281019   -0.1419710 
   9.300000000    -0.0911119    0.0745880    -0.0005924   -0.0057571    -0.0007669   -0.0057230    -0.1549792   -0.1265690 
   9.320000000    -0.0824671    0.0814139    -0.0055121    0.0000467    -0.0056338    0.0001542    -0.1154980   -0.0941672 
   9.340000000    -0.0612561    0.0614969    -0.0005861    0.0057401    -0.0004183    0.0059260    -0.1245252   -0.1215688 
   9.360000000     0.0279240    0.1003115     0.0062158    0.0007783     0.0063996    0.0003978    -0.1731144   -0.1288987 
   9.380000000     0.0346372    0.0507373     0.0005208   -0.0058278     0.0002813   -0.0058773    -0.1734392   -0.1015455 
   9.400000000    -0.0135245    0.0521469    -0.0051169   -0.0008486    -0.0052157   -0.0006547    -0.1495114   -0.0774670 
   9.420000000     0.0639568    0.0353424    -0.0018857    0.0045718    -0.0016647    0.0047355    -0.1898241   -0.0826667 
   9.440000000     0.0307208    0.0062020     0.0047374    0.0028428     0.0049845    0.0024167    -0.2034906   -0.0766790 
   9.460000000    -0.0234596    0.0406305     0.0030631   -0.0049709     0.0025553   -0.0049398    -0.2047150   -0.0357251 
   9.480000000     0.0180340    0.0056394    -0.0049630   -0.0031512    -0.0047715   -0.0027511    -0.2054090   -0.0340143 
   9.500000000    -0.0120406   -0.0047598    -0.0033212    0.0042475    -0.0031498    0.0040789    -0.2166482    0.0226743 
   9.520000000    -0.0144520    0.0357326     0.0040771    0.0041557     0.0039921    0.0039269    -0.1854764    0.0011274 
   9.540000000    -0.0158234   -0.0018881     0.0045581   -0.0041509     0.0043143   -0.0040335    -0.2038684    0.0048774 
   9.560000000    -0.0087858    0.0030317    -0.0045097   -0.0046688    -0.0042552   -0.0044694    -0.2115557    0.0214715 
   9.580000000     0.0374684    0.0469811    -0.0040207    0.0040755    -0.0040787    0.0037554    -0.2008855    0.0684343 
   9.600000000     0.0238558    0.0715483     0.0033891    0.0042601     0.0033263    0.0043974    -0.1519738    0.0335006 
   9.620000000     0.0133735   -0.0019812     0.0047542   -0.0026873     0.0047046   -0.0027209    -0.2259853    0.0318160 
   9.640000000    -0.0029661   -0.0512599    -0.0027295   -0.0050992    -0.0025925   -0.0050368    -0.2317523    0.0999970 
   9.660000000    -0.0007221   -0.0204686    -0.0047790    0.0025373    -0.0048713    0.0023636    -0.1980284    0.1168889 
   9.680000000    -0.0074902   -0.0484897     0.0017234    0.0047141     0.0016833    0.0049319    -0.1719037    0.0891017 
   9.700000000    -0.0283223   -0.0702804     0.0050211   -0.0011110     0.0052147   -0.0012015    -0.2322026    0.1301440 
   9.720000000    -0.0139942   -0.0339742    -0.0010569   -0.0052661    -0.0011498   -0.0053132    -0.1694494    0.1522417 
   9.740000000    -0.1072878   -0.0276234    -0.0053130    0.0008891    -0.0053898    0.0009891    -0.1721383    0.1590713 
   9.760000000    -0.1823141    0.0130701     0.0004820    0.0048747     0.0005794    0.0050100    -0.1609695    0.1725202 
   9.780000000    -0.1201870    0.0612000     0.0049360    0.0000345     0.0051452   -0.0001496    -0.1472824    0.1787680 
   9.800000000    -0.0727414    0.0850617     0.0001603   -0.0049936    -0.0001249   -0.0050974    -0.1132697    0.1763789 
   9.820000000    -0.0985801    0.1235472    -0.0048107   -0.0005579    -0.0047585   -0.0002898    -0.1469658    0.1672673 
   9.840000000    -0.0578505    0.1211666    -0.0005957    0.0040853    -0.0005160    0.0039971    -0.1542288    0.2448985 
   9.860000000     0.0057588    0.1271147     0.0038726    0.0014287     0.0038458    0.0013993    -0.0865452    0.2018929 
   9.880000000     0.0756313    0.1759064     0.0019371   -0.0037714     0.0019074   -0.0037193    -0.1007304    0.1990842 
   9.900000000     0.1190561    0.1337920    -0.0035098   -0.0022017    -0.0035062   -0.0020952    -0.1202910    0.2463928 
   9.920000000     0.1209310    0.0237386    -0.0023754    0.0032770    -0.0023152    0.0032968    -0.0703964    0.2779712 
   9.940000000     0.1029871   -0.0152717     0.0027261    0.0030733     0.0028146    0.0030812    -0.0418967    0.2359535 
   9.960000000     0.0658500   -0.0298780     0.0033802   -0.0028080     0.0034239   -0.0028792    -0.0308077    0.2533671 
   9.980000000     0.0501683   -0.0796167    -0.0025678   -0.0033684    -0.0026932   -0.0033794    -0.0209534    0.2885835 
  10.000000000     0.0642267   -0.1272901    -0.0035487    0.0019448    -0.0035381    0.0019785     0.0056840    0.2548517 
