! 4/11/2025 3:34:30 PM
! C:\ANRITSUVNA\LELEC2350\LAB1_2025\GROUP1_50.S2P
! CHANNEL.1
! TR.MEASUREMENT
! CORRECTED.DATA
! RF.CORRECTION: FULL.TWO.PORT.CAL.PORT.1.2
! AVERAGING.OFF
! IF.BANDWIDTH: 300HZ
! SWEEPTYPE:  FREQ.SWEEP(Linear)
! Reference Plane Port Info
! PORT:              PORT1              PORT2             
! DISTANCE:          0  m               0  m              
! TIME:              0  s               0  s              
! PHASE.OFFSET:      0 °                0 °               
! LOSS:              0  dB              0  dB             
! REF.LOSS:          0  dB              0  dB             
! REF.FREQ:          0  Hz              0  Hz             
! Power Info
! POWER:             5  dBm             5  dBm            
! EFF.POWER:         5  dBm             5  dBm            
# GHZ S RI R 50.0
! FREQ.GHZ         S11RE         S11IM         S21RE         S21IM         S12RE         S12IM         S22RE         S22IM         
!; PortSelection: Port_12
   7.000000000    -0.0741652   -0.0381387    -0.0072534    0.0080310    -0.0101073    0.0064452    -0.0584187   -0.1038398 
   7.020000000    -0.0896690    0.0497947     0.0058908    0.0077143     0.0066147    0.0117293    -0.0349590   -0.1088464 
   7.040000000    -0.0310016    0.0814103     0.0100554   -0.0054584     0.0113633   -0.0076758    -0.0546106   -0.1100765 
   7.060000000    -0.0277861    0.0244161    -0.0073471   -0.0110015    -0.0070866   -0.0102734    -0.0500012   -0.1046894 
   7.080000000    -0.0013185    0.0619172    -0.0089437    0.0077870    -0.0107391    0.0059266    -0.0682974   -0.1080206 
   7.100000000     0.0694511    0.0821660     0.0053819    0.0081644     0.0051371    0.0117813    -0.0784239   -0.0971516 
   7.120000000     0.0801656    0.0410284     0.0101538   -0.0039048     0.0124860   -0.0056389    -0.0638305   -0.0751741 
   7.140000000     0.0918586   -0.0064404    -0.0049884   -0.0115838    -0.0054763   -0.0115588    -0.0709612   -0.0952842 
   7.160000000     0.0885393   -0.0691201    -0.0102657    0.0059408    -0.0113087    0.0040847    -0.0896004   -0.1014727 
   7.180000000     0.0050627   -0.1082555     0.0041087    0.0089233     0.0026913    0.0120671    -0.0977086   -0.0828625 
   7.200000000    -0.0463182   -0.1081113     0.0103993   -0.0022699     0.0086323   -0.0050321    -0.0864912   -0.0878259 
   7.220000000    -0.0441957   -0.0842145    -0.0025506   -0.0115223    -0.0049277   -0.0070338    -0.1233501   -0.1002503 
   7.240000000    -0.0460116   -0.0306366    -0.0108398    0.0034433    -0.0069959    0.0029870    -0.1341003   -0.0603969 
   7.260000000    -0.0832378   -0.0160520     0.0019492    0.0095110     0.0020351    0.0086050    -0.1027808   -0.0470702 
   7.280000000    -0.1200830    0.0150833     0.0101042   -0.0002158     0.0095254   -0.0027106    -0.1114990   -0.0652609 
   7.300000000    -0.0710725    0.0710011    -0.0001862   -0.0109914    -0.0032955   -0.0086642    -0.1481802   -0.0558361 
   7.320000000    -0.0149632    0.0734992    -0.0102027    0.0008122    -0.0074016    0.0021943    -0.1462833   -0.0254805 
   7.340000000     0.0053376    0.0617686    -0.0006195    0.0086411     0.0005368    0.0076904    -0.1187067   -0.0228657 
   7.360000000     0.0361244    0.0150259     0.0090415    0.0024231     0.0088406   -0.0000669    -0.1402920   -0.0286109 
   7.380000000     0.0259171    0.0082713     0.0029645   -0.0102278    -0.0008560   -0.0089043    -0.1429809   -0.0327419 
   7.400000000     0.0441236    0.0387915    -0.0095816   -0.0020066    -0.0077485    0.0007023    -0.1453973   -0.0121156 
   7.420000000     0.0501208   -0.0215099    -0.0031322    0.0080136    -0.0007682    0.0073014    -0.1633805    0.0041663 
   7.440000000     0.0222579   -0.0374809     0.0079539    0.0049476     0.0077316    0.0019351    -0.1541872    0.0177583 
   7.460000000     0.0221834   -0.0231240     0.0056885   -0.0090651     0.0018498   -0.0085490    -0.1419564    0.0207285 
   7.480000000    -0.0188079   -0.0543217    -0.0089262   -0.0045585    -0.0079530   -0.0010453    -0.1631403    0.0022552 
   7.500000000    -0.0303313   -0.0543201    -0.0045685    0.0068458    -0.0018504    0.0066848    -0.1736803    0.0483811 
   7.520000000     0.0072988   -0.0605208     0.0059309    0.0063140     0.0064993    0.0027991    -0.1412959    0.0617111 
   7.540000000    -0.0301797   -0.0603581     0.0070199   -0.0060326     0.0031367   -0.0067100    -0.1392489    0.0656204 
   7.560000000    -0.0836245   -0.0398294    -0.0055203   -0.0069611    -0.0060999   -0.0030433    -0.1491343    0.0374342 
   7.580000000    -0.1234333    0.0055707    -0.0072517    0.0039377    -0.0037279    0.0048705    -0.1548133    0.0861539 
   7.600000000    -0.0897608    0.0853604     0.0026097    0.0090248     0.0043647    0.0049983    -0.1392784    0.0836578 
   7.620000000    -0.0467767    0.0861155     0.0106252   -0.0032074     0.0059825   -0.0048229    -0.1433689    0.1035609 
   7.640000000    -0.0250038    0.0970304    -0.0037161   -0.0104596    -0.0051030   -0.0059648    -0.1252795    0.0838466 
   7.660000000     0.0878615    0.0785421    -0.0098543    0.0027347    -0.0056312    0.0044615    -0.1409622    0.0936185 
   7.680000000     0.0852414    0.0244493     0.0012808    0.0107250     0.0033055    0.0062233    -0.1446450    0.1270588 
   7.700000000     0.0690986    0.0126705     0.0122943   -0.0012810     0.0073726   -0.0031081    -0.1283094    0.1448854 
   7.720000000     0.0582708   -0.0835826    -0.0020892   -0.0118926    -0.0035838   -0.0077718    -0.1072069    0.1239106 
   7.740000000     0.0150387   -0.0779806    -0.0108500    0.0006562    -0.0070624    0.0033341    -0.1178651    0.1338945 
   7.760000000     0.0131009   -0.0551506    -0.0008730    0.0110762     0.0020390    0.0070300    -0.1250042    0.1635550 
   7.780000000    -0.0417938   -0.0997287     0.0124728    0.0018309     0.0078836   -0.0012047    -0.0982326    0.1562008 
   7.800000000    -0.0931214   -0.0675134     0.0012564   -0.0124294    -0.0012225   -0.0089201    -0.0699902    0.1633412 
   7.820000000    -0.0808179   -0.0036761    -0.0116532   -0.0022183    -0.0086996    0.0013796    -0.0816553    0.1655034 
   7.840000000    -0.0910818    0.0256541    -0.0034572    0.0119954     0.0009065    0.0082846    -0.0859849    0.1693183 
   7.860000000    -0.0596670    0.0568729     0.0128488    0.0037946     0.0082719   -0.0000263    -0.0765244    0.1940672 
   7.880000000    -0.0097862    0.0452540     0.0031245   -0.0127417     0.0003643   -0.0091187    -0.0561992    0.1756176 
   7.900000000    -0.0062479    0.0528284    -0.0112833   -0.0036301    -0.0090478    0.0000351    -0.0389167    0.1956408 
   7.920000000    -0.0064043    0.0452611    -0.0051926    0.0113673    -0.0001843    0.0086001    -0.0415078    0.1928855 
   7.940000000     0.0166187    0.0184361     0.0116641    0.0054498     0.0080171    0.0007795    -0.0403372    0.1892554 
   7.960000000     0.0849114    0.0157982     0.0052084   -0.0112526     0.0017663   -0.0081688    -0.0051897    0.2130235 
   7.980000000     0.0810495   -0.0361589    -0.0096452   -0.0051719    -0.0083475   -0.0017792     0.0182854    0.2245880 
   8.000000000    -0.0238642   -0.0647370    -0.0069682    0.0081241    -0.0017184    0.0078240     0.0169380    0.1775863 
   8.020000000    -0.0253739   -0.0366503     0.0080980    0.0084948     0.0068891    0.0021351     0.0280232    0.1938116 
   8.040000000    -0.0125675   -0.0562589     0.0089356   -0.0085384     0.0031801   -0.0065650     0.0357537    0.1980681 
   8.060000000    -0.0546590   -0.0440634    -0.0078248   -0.0087655    -0.0068983   -0.0037886     0.0534230    0.2015857 
   8.080000000    -0.0529271   -0.0585698    -0.0095020    0.0065249    -0.0034310    0.0067814     0.0669561    0.1798282 
   8.100000000    -0.0892901   -0.0302272     0.0065275    0.0106795     0.0058979    0.0036460     0.0452796    0.1661271 
   8.120000000    -0.1041514    0.0860828     0.0109327   -0.0068979     0.0045966   -0.0050799     0.0626462    0.1914680 
   8.140000000    -0.0523014    0.1069520    -0.0061463   -0.0107911    -0.0049088   -0.0056448     0.0770383    0.1959282 
   8.160000000    -0.0114816    0.0585162    -0.0105491    0.0051820    -0.0054465    0.0053452     0.1027046    0.1783730 
   8.180000000     0.0328637    0.0673162     0.0041705    0.0112128     0.0044831    0.0051451     0.1009942    0.1489533 
   8.200000000     0.0601298    0.0441685     0.0113578   -0.0037985     0.0055903   -0.0036857     0.1012124    0.1739652 
   8.220000000     0.0445040    0.0149253    -0.0023926   -0.0109372    -0.0031410   -0.0064732     0.1260174    0.1738588 
   8.240000000     0.0906566   -0.0153521    -0.0115070    0.0014653    -0.0066707    0.0034837     0.1583484    0.1437419 
   8.260000000     0.1066468   -0.0717947     0.0004087    0.0117195     0.0028951    0.0063851     0.1310275    0.1251188 
   8.280000000     0.0229118   -0.1055599     0.0122171    0.0002012     0.0063540   -0.0020143     0.1247779    0.1387674 
   8.300000000    -0.0495118   -0.1179941     0.0009156   -0.0120028    -0.0012162   -0.0067823     0.1640451    0.1224729 
   8.320000000    -0.0727837   -0.0750557    -0.0121345   -0.0017725    -0.0071242    0.0008055     0.1354190    0.1195574 
   8.340000000    -0.0782753   -0.0383662    -0.0023752    0.0121961     0.0006446    0.0072496     0.1454519    0.1109371 
   8.360000000    -0.1315432   -0.0601722     0.0124265    0.0028831     0.0071748   -0.0001625     0.1661339    0.1000255 
   8.380000000    -0.1097735   -0.0017076     0.0027880   -0.0120090     0.0004498   -0.0072907     0.1648193    0.0895800 
   8.400000000    -0.0653306    0.0349715    -0.0110159   -0.0037864    -0.0074147   -0.0007768     0.1468277    0.0987277 
   8.420000000    -0.0859579    0.1142266    -0.0043820    0.0107696    -0.0008143    0.0073883     0.1951174    0.0948630 
   8.440000000    -0.0160289    0.1129866     0.0098400    0.0051182     0.0065919    0.0011874     0.1861387    0.0570650 
   8.460000000    -0.0145149    0.0526429     0.0062242   -0.0094249     0.0021973   -0.0064790     0.1701082    0.0382200 
   8.480000000     0.0242206    0.0807372    -0.0082890   -0.0069592    -0.0064071   -0.0027190     0.1663019    0.0718869 
   8.500000000     0.0551874    0.0220325    -0.0086401    0.0080766    -0.0031174    0.0067621     0.1954890    0.0359577 
   8.520000000     0.0398219   -0.0046434     0.0079221    0.0090146     0.0059820    0.0027078     0.1971144   -0.0088312 
   8.540000000     0.0782062   -0.0210881     0.0098489   -0.0073712     0.0039254   -0.0051256     0.1746947    0.0214024 
   8.560000000     0.0261282   -0.0213667    -0.0067531   -0.0102364    -0.0053059   -0.0047918     0.1639132    0.0138326 
   8.580000000     0.0081469   -0.0233756    -0.0112883    0.0064719    -0.0052574    0.0056835     0.1683521   -0.0163548 
   8.600000000    -0.0111014   -0.0796688     0.0066654    0.0114737     0.0056783    0.0045350     0.1844728    0.0103600 
   8.620000000    -0.0491944   -0.0227125     0.0109998   -0.0061158     0.0045514   -0.0042754     0.1766554   -0.0051023 
   8.640000000    -0.0497784   -0.0039030    -0.0047789   -0.0109211    -0.0035390   -0.0056541     0.1752195   -0.0370855 
   8.660000000    -0.0823236   -0.0258493    -0.0114285    0.0031931    -0.0063346    0.0037601     0.1593622   -0.0342750 
   8.680000000    -0.0382757    0.0250247     0.0026127    0.0123056     0.0037538    0.0061472     0.1937267   -0.0324825 
   8.700000000     0.0183125    0.0248374     0.0123432   -0.0021706     0.0056727   -0.0028394     0.1834227   -0.0684150 
   8.720000000    -0.0306826    0.0207928    -0.0011148   -0.0121274    -0.0013987   -0.0064267     0.1361896   -0.0928593 
   8.740000000    -0.0179901    0.0667888    -0.0124043   -0.0003109    -0.0075708    0.0017535     0.1381831   -0.0739163 
   8.760000000     0.0246693    0.0227837    -0.0013635    0.0133054     0.0018523    0.0073192     0.1730686   -0.0770802 
   8.780000000    -0.0053535    0.0293130     0.0137490    0.0012826     0.0066157   -0.0015019     0.1210187   -0.1049453 
   8.800000000     0.0233676   -0.0053908     0.0018249   -0.0135198     0.0000491   -0.0067942     0.0980391   -0.1080489 
   8.820000000     0.0228151   -0.0843869    -0.0131514   -0.0022324    -0.0078644   -0.0002415     0.1434952   -0.0875430 
   8.840000000    -0.0118420   -0.0264747    -0.0032749    0.0130778    -0.0000233    0.0078119     0.1115097   -0.1106796 
   8.860000000    -0.0171185    0.0247246     0.0133912    0.0033497     0.0071552   -0.0001829     0.1114575   -0.1235266 
   8.880000000    -0.0275817   -0.0389288     0.0035899   -0.0125844     0.0012876   -0.0062767     0.1232988   -0.1237857 
   8.900000000    -0.0479789   -0.0516997    -0.0115633   -0.0040651    -0.0070436   -0.0024097     0.1080852   -0.1464605 
   8.920000000    -0.0713360   -0.0187449    -0.0050418    0.0105808    -0.0022170    0.0077266     0.0706554   -0.1293673 
   8.940000000    -0.1110973    0.0229542     0.0101114    0.0061533     0.0072692    0.0015772     0.0865044   -0.1430033 
   8.960000000    -0.0641059    0.0607658     0.0066049   -0.0096791     0.0019658   -0.0060305     0.0725549   -0.1645299 
   8.980000000    -0.0180573    0.0621092    -0.0088150   -0.0071234    -0.0054972   -0.0032055     0.0586113   -0.1837121 
   9.000000000    -0.0183461    0.0611851    -0.0078293    0.0077833    -0.0039912    0.0061834     0.0115387   -0.1442952 
   9.020000000    -0.0288208    0.0438513     0.0070354    0.0088288     0.0061922    0.0031747     0.0417346   -0.1479297 
   9.040000000    -0.0049406    0.0757948     0.0098321   -0.0068091     0.0029610   -0.0050411     0.0345557   -0.1789689 
   9.060000000     0.0681001    0.0931770    -0.0066890   -0.0100488    -0.0035544   -0.0037132     0.0092664   -0.1416136 
   9.080000000     0.0615555    0.0300421    -0.0099271    0.0058538    -0.0053845    0.0032526    -0.0085053   -0.1878895 
   9.100000000     0.0316802   -0.0203119     0.0046894    0.0099488     0.0039099    0.0055018    -0.0006037   -0.1493640 
   9.120000000     0.0645498   -0.0369553     0.0108838   -0.0035710     0.0050995   -0.0037069    -0.0008798   -0.1457792 
   9.140000000     0.0380246   -0.0330272    -0.0033812   -0.0115094    -0.0023893   -0.0047878    -0.0237041   -0.1852511 
   9.160000000     0.0166981   -0.0127179    -0.0109319    0.0031534    -0.0060461    0.0013969    -0.0460005   -0.1956802 
   9.180000000     0.0157873   -0.0930867     0.0022091    0.0104079     0.0018679    0.0068974    -0.0815352   -0.1611510 
   9.200000000    -0.0428729   -0.0960955     0.0100602   -0.0004464     0.0063787   -0.0024466    -0.0689531   -0.1515668 
   9.220000000    -0.0945856   -0.0460847     0.0010452   -0.0108573    -0.0015796   -0.0052578    -0.0817808   -0.1753247 
   9.240000000    -0.1005931   -0.0456270    -0.0113372   -0.0012758    -0.0053952    0.0000994    -0.1038349   -0.1703907 
   9.260000000    -0.0775503   -0.0044178    -0.0016246    0.0110018    -0.0005532    0.0063048    -0.1027118   -0.1186541 
   9.280000000    -0.0684594    0.0454174     0.0102684    0.0025433     0.0064578   -0.0000194    -0.1206365   -0.1291530 
   9.300000000    -0.1020586    0.0750069     0.0041031   -0.0098813     0.0004024   -0.0052663    -0.1387822   -0.1313378 
   9.320000000    -0.0684201    0.0684549    -0.0104897   -0.0052408    -0.0046870   -0.0017734    -0.1192865   -0.1095344 
   9.340000000    -0.0465930    0.0636794    -0.0051160    0.0109490    -0.0033274    0.0052341    -0.1394034   -0.1209267 
   9.360000000     0.0129144    0.1149337     0.0101546    0.0049437     0.0063981    0.0032206    -0.1756597   -0.1140070 
   9.380000000     0.0286566    0.0460099     0.0054903   -0.0088183     0.0027384   -0.0059309    -0.1561660   -0.0976354 
   9.400000000     0.0040714    0.0410117    -0.0078100   -0.0068169    -0.0048982   -0.0030268    -0.1434762   -0.0941438 
   9.420000000     0.0677144    0.0463988    -0.0081234    0.0075786    -0.0045962    0.0041625    -0.2062129   -0.0917575 
   9.440000000     0.0161487    0.0105205     0.0074995    0.0085806     0.0051923    0.0056364    -0.2171903   -0.0643415 
   9.460000000    -0.0216892    0.0222587     0.0085880   -0.0067666     0.0050305   -0.0059343    -0.1925327   -0.0208330 
   9.480000000     0.0336195    0.0043844    -0.0055663   -0.0092942    -0.0050496   -0.0040610    -0.1897696   -0.0423478 
   9.500000000    -0.0146631    0.0065005    -0.0104774    0.0051279    -0.0046221    0.0033403    -0.2258219    0.0061422 
   9.520000000    -0.0290955    0.0261412     0.0048989    0.0111853     0.0029593    0.0059513    -0.2003411    0.0083602 
   9.540000000    -0.0086759   -0.0128243     0.0113343   -0.0050003     0.0066170   -0.0035895    -0.2014710    0.0217486 
   9.560000000     0.0051896    0.0134290    -0.0043784   -0.0109574    -0.0037712   -0.0055596    -0.1901694    0.0231330 
   9.580000000     0.0237360    0.0497626    -0.0109307    0.0033980    -0.0051833    0.0022012    -0.1998569    0.0479701 
   9.600000000     0.0073152    0.0540808     0.0025594    0.0110542     0.0009570    0.0060254    -0.1682726    0.0282640 
   9.620000000     0.0272519   -0.0062003     0.0110986   -0.0018351     0.0075130   -0.0009086    -0.2344896    0.0449500 
   9.640000000     0.0053150   -0.0380354    -0.0011753   -0.0110909    -0.0018556   -0.0073060    -0.2164331    0.1121067 
   9.660000000    -0.0157101   -0.0244766    -0.0104388    0.0004958    -0.0062288    0.0014758    -0.1876165    0.1014806 
   9.680000000    -0.0066501   -0.0648602    -0.0011750    0.0101954     0.0000388    0.0057815    -0.1850781    0.0759157 
   9.700000000    -0.0172884   -0.0639390     0.0107870    0.0019969     0.0068682    0.0008624    -0.2465014    0.1399714 
   9.720000000    -0.0259211   -0.0171615     0.0024574   -0.0109717     0.0000076   -0.0072266    -0.1656634    0.1705238 
   9.740000000    -0.1185490   -0.0384093    -0.0109660   -0.0025589    -0.0062035    0.0004003    -0.1532622    0.1532005 
   9.760000000    -0.1693280   -0.0049538    -0.0030429    0.0098679    -0.0007012    0.0047014    -0.1624569    0.1538930 
   9.780000000    -0.1135401    0.0698598     0.0096695    0.0041499     0.0049375    0.0022444    -0.1655514    0.1795839 
   9.800000000    -0.0922160    0.0945463     0.0045833   -0.0094337     0.0027404   -0.0054932    -0.1147804    0.1926230 
   9.820000000    -0.1028503    0.1098153    -0.0092802   -0.0049842    -0.0055217   -0.0023828    -0.1327973    0.1721287 
   9.840000000    -0.0411367    0.1178162    -0.0046236    0.0083271    -0.0024332    0.0040545    -0.1469678    0.2292758 
   9.860000000     0.0045858    0.1440056     0.0069400    0.0052056     0.0033939    0.0038564    -0.0989061    0.1929104 
   9.880000000     0.0553966    0.1733121     0.0062468   -0.0060377     0.0048265   -0.0036001    -0.1136158    0.2100280 
   9.900000000     0.1160258    0.1201831    -0.0053965   -0.0070127    -0.0042243   -0.0048190    -0.1124926    0.2601921 
   9.920000000     0.1327741    0.0351915    -0.0072971    0.0050841    -0.0043108    0.0036360    -0.0536757    0.2691494 
   9.940000000     0.0955701   -0.0013070     0.0037126    0.0074379     0.0024092    0.0048230    -0.0476616    0.2203764 
   9.960000000     0.0550943   -0.0442140     0.0082381   -0.0028740     0.0056426   -0.0020920    -0.0499466    0.2577523 
   9.980000000     0.0620644   -0.0861757    -0.0019007   -0.0089751    -0.0022193   -0.0060515    -0.0202363    0.3034163 
  10.000000000     0.0727762   -0.1071980    -0.0097402    0.0016158    -0.0056707    0.0020971     0.0228198    0.2596968 
