! 4/11/2025 3:28:49 PM
! C:\ANRITSUVNA\LELEC2350\LAB1_2025\GROUP1_25.S2P
! CHANNEL.1
! TR.MEASUREMENT
! CORRECTED.DATA
! RF.CORRECTION: FULL.TWO.PORT.CAL.PORT.1.2
! AVERAGING.OFF
! IF.BANDWIDTH: 300HZ
! SWEEPTYPE:  FREQ.SWEEP(Linear)
! Reference Plane Port Info
! PORT:              PORT1              PORT2             
! DISTANCE:          0  m               0  m              
! TIME:              0  s               0  s              
! PHASE.OFFSET:      0 °                0 °               
! LOSS:              0  dB              0  dB             
! REF.LOSS:          0  dB              0  dB             
! REF.FREQ:          0  Hz              0  Hz             
! Power Info
! POWER:             5  dBm             5  dBm            
! EFF.POWER:         5  dBm             5  dBm            
# GHZ S RI R 50.0
! FREQ.GHZ         S11RE         S11IM         S21RE         S21IM         S12RE         S12IM         S22RE         S22IM         
!; PortSelection: Port_12
   7.000000000    -0.0820128   -0.0279871     0.0044781   -0.0019505     0.0041274   -0.0020382    -0.0435072   -0.1475949 
   7.020000000    -0.0874303    0.0485875    -0.0011129   -0.0034699    -0.0010926   -0.0030305    -0.0736514   -0.1246113 
   7.040000000    -0.0188748    0.0738593    -0.0040584    0.0004016    -0.0036203    0.0001989    -0.0778878   -0.0814157 
   7.060000000    -0.0339773    0.0306801     0.0008696    0.0048632     0.0007536    0.0045513    -0.0270669   -0.0708158 
   7.080000000    -0.0098591    0.0651601     0.0040961   -0.0017348     0.0038606   -0.0016304    -0.0289576   -0.1306529 
   7.100000000     0.0731792    0.0767268    -0.0013934   -0.0032571    -0.0011619   -0.0030110    -0.0987136   -0.1342543 
   7.120000000     0.0897647    0.0414126    -0.0027174    0.0005885    -0.0025281    0.0003746    -0.0989394   -0.0638683 
   7.140000000     0.0878719   -0.0007469    -0.0003325    0.0034641    -0.0006115    0.0033261    -0.0715902   -0.0581065 
   7.160000000     0.0836598   -0.0744870     0.0035459   -0.0004919     0.0034640   -0.0002905    -0.0474682   -0.0941058 
   7.180000000     0.0088496   -0.1115685    -0.0001308   -0.0027253     0.0002393   -0.0026066    -0.0881469   -0.1248282 
   7.200000000    -0.0405217   -0.0995335    -0.0025099   -0.0006118    -0.0024353   -0.0008261    -0.1285391   -0.0879652 
   7.220000000    -0.0502590   -0.0837935    -0.0017301    0.0029702    -0.0017970    0.0029590    -0.1327016   -0.0628577 
   7.240000000    -0.0488599   -0.0401669     0.0042100    0.0013935     0.0041131    0.0014584    -0.0976040   -0.0416698 
   7.260000000    -0.0751359   -0.0163229     0.0003347   -0.0041783     0.0004762   -0.0040057    -0.0771496   -0.0833007 
   7.280000000    -0.1175359    0.0206642    -0.0029181   -0.0002114    -0.0028638   -0.0004857    -0.1454855   -0.0939823 
   7.300000000    -0.0812974    0.0662975    -0.0013654    0.0029679    -0.0016158    0.0029682    -0.1802768   -0.0298419 
   7.320000000    -0.0140106    0.0702111     0.0039496    0.0010119     0.0039317    0.0012848    -0.1280966    0.0121548 
   7.340000000     0.0155447    0.0654965    -0.0003239   -0.0037337    -0.0000469   -0.0037731    -0.0755943   -0.0341283 
   7.360000000     0.0302865    0.0136511    -0.0020917    0.0008382    -0.0021666    0.0006350    -0.1484338   -0.0739066 
   7.380000000     0.0107130   -0.0006721     0.0000237    0.0008925    -0.0001583    0.0009608    -0.1860570   -0.0307899 
   7.400000000     0.0484565    0.0422145     0.0007054    0.0013695     0.0007417    0.0016023    -0.1513094    0.0290490 
   7.420000000     0.0599233   -0.0151358     0.0013851   -0.0015424     0.0016993   -0.0016962    -0.1234194    0.0183647 
   7.440000000     0.0148418   -0.0445863    -0.0008615   -0.0009805    -0.0010891   -0.0012065    -0.1339018   -0.0220276 
   7.460000000     0.0129722   -0.0326515    -0.0016856    0.0001179    -0.0017550    0.0003551    -0.1779957   -0.0029950 
   7.480000000    -0.0128316   -0.0443363     0.0000273    0.0030332     0.0001792    0.0030444    -0.1916505    0.0314101 
   7.500000000    -0.0257753   -0.0457293     0.0035458   -0.0016018     0.0036706   -0.0016855    -0.1511531    0.0827683 
   7.520000000    -0.0022430   -0.0720174    -0.0021564   -0.0024676    -0.0023078   -0.0025487    -0.1035999    0.0434922 
   7.540000000    -0.0358973   -0.0666789    -0.0015011    0.0018151    -0.0016024    0.0019997    -0.1528396    0.0269034 
   7.560000000    -0.0766210   -0.0250016     0.0007956    0.0015512     0.0009383    0.0016403    -0.1884850    0.0429586 
   7.580000000    -0.1214648    0.0071965     0.0020659   -0.0011062     0.0022297   -0.0012334    -0.1569515    0.1256825 
   7.600000000    -0.0990465    0.0680143    -0.0012630   -0.0012090    -0.0014836   -0.0013175    -0.1002673    0.0925194 
   7.620000000    -0.0498010    0.0895396    -0.0003722    0.0004698    -0.0005130    0.0007384    -0.1303918    0.0655297 
   7.640000000    -0.0164065    0.1173988    -0.0007790    0.0005634    -0.0005547    0.0006211    -0.1571545    0.0663183 
   7.660000000     0.0882864    0.0695287     0.0014017    0.0013754     0.0014459    0.0011767    -0.1657948    0.1204088 
   7.680000000     0.0738269    0.0090742     0.0010788   -0.0020948     0.0007678   -0.0020278    -0.1208174    0.1575348 
   7.700000000     0.0691396    0.0278853    -0.0013266   -0.0008544    -0.0012308   -0.0005917    -0.0956639    0.1242467 
   7.720000000     0.0641917   -0.0699781    -0.0019284    0.0014906    -0.0017909    0.0012227    -0.1210380    0.0914013 
   7.740000000     0.0104131   -0.0941936     0.0022679    0.0022382     0.0021512    0.0022551    -0.1522041    0.1404682 
   7.760000000     0.0084246   -0.0624387     0.0016740   -0.0033110     0.0016487   -0.0033281    -0.1262413    0.2000661 
   7.780000000    -0.0365954   -0.0802420    -0.0031186   -0.0002297    -0.0030818   -0.0001928    -0.0611558    0.1618722 
   7.800000000    -0.0896844   -0.0635483     0.0000088    0.0019531     0.0001016    0.0019941    -0.0606889    0.1291301 
   7.820000000    -0.0875998   -0.0207319     0.0010712    0.0006272     0.0011098    0.0005348    -0.1104506    0.1503135 
   7.840000000    -0.0935320    0.0316233     0.0013593   -0.0016766     0.0012834   -0.0017139    -0.1083762    0.1946302 
   7.860000000    -0.0527569    0.0760232    -0.0018037   -0.0003137    -0.0017165   -0.0001716    -0.0529875    0.2219060 
   7.880000000    -0.0090876    0.0346909     0.0000276    0.0003622     0.0001299    0.0003242    -0.0266288    0.1550277 
   7.900000000    -0.0126395    0.0355313    -0.0008345    0.0010732    -0.0008968    0.0009744    -0.0515921    0.1665398 
   7.920000000    -0.0071498    0.0593510     0.0026606    0.0007118     0.0025162    0.0007116    -0.0745598    0.1971724 
   7.940000000     0.0216024    0.0354453    -0.0003369   -0.0031461    -0.0002478   -0.0030559    -0.0407996    0.2251206 
   7.960000000     0.0872091   -0.0004030    -0.0025243    0.0008414    -0.0024269    0.0008022     0.0320953    0.2158963 
   7.980000000     0.0797209   -0.0482471     0.0001603    0.0027090     0.0001262    0.0025716     0.0242431    0.1915240 
   8.000000000    -0.0252921   -0.0457047     0.0034956   -0.0003858     0.0032907   -0.0003888    -0.0120540    0.1627865 
   8.020000000    -0.0254214   -0.0277371    -0.0014840   -0.0037226    -0.0014008   -0.0035390     0.0059867    0.2215903 
   8.040000000    -0.0104606   -0.0731524    -0.0024005    0.0025556    -0.0022227    0.0024416     0.0633054    0.2241670 
   8.060000000    -0.0499939   -0.0454553     0.0015743    0.0011094     0.0013791    0.0009517     0.0778514    0.1770888 
   8.080000000    -0.0519717   -0.0467169     0.0010310   -0.0005556     0.0009967   -0.0003237     0.0511819    0.1558342 
   8.100000000    -0.0946708   -0.0358601    -0.0002299   -0.0017115    -0.0000274   -0.0017487     0.0175984    0.1737853 
   8.120000000    -0.0986582    0.0748468    -0.0013770    0.0009121    -0.0015044    0.0006948     0.0664408    0.2238924 
   8.140000000    -0.0425183    0.1120109     0.0001595    0.0002719     0.0001028    0.0003257     0.1098902    0.1931883 
   8.160000000    -0.0179496    0.0658291     0.0004452    0.0012921     0.0003897    0.0014722     0.1039544    0.1501924 
   8.180000000     0.0263204    0.0570083     0.0018802   -0.0018776     0.0020276   -0.0019220     0.0784555    0.1385260 
   8.200000000     0.0655372    0.0345530    -0.0025109   -0.0007639    -0.0024889   -0.0009950     0.0829857    0.1968095 
   8.220000000     0.0426670    0.0251000    -0.0001843    0.0018116    -0.0003812    0.0019294     0.1487610    0.1952881 
   8.240000000     0.0828220   -0.0106799     0.0012639    0.0007013     0.0013599    0.0008124     0.1788617    0.1241040 
   8.260000000     0.1105483   -0.0866621     0.0010630   -0.0017256     0.0011833   -0.0018326     0.1196147    0.1029999 
   8.280000000     0.0300164   -0.1098318    -0.0021127   -0.0005220    -0.0021984   -0.0006328     0.0980307    0.1443623 
   8.300000000    -0.0585152   -0.1041763     0.0004255    0.0017026     0.0002046    0.0017988     0.1664266    0.1536079 
   8.320000000    -0.0812358   -0.0742548     0.0003088   -0.0006033     0.0006286   -0.0004658     0.1659588    0.1189391 
   8.340000000    -0.0696960   -0.0466473     0.0001140    0.0002536     0.0001607    0.0001008     0.1496153    0.0837308 
   8.360000000    -0.1265820   -0.0569858     0.0005919   -0.0006734     0.0004255   -0.0007661     0.1411351    0.0889416 
   8.380000000    -0.1221085    0.0021496    -0.0009633   -0.0005305    -0.0010151   -0.0003655     0.1483227    0.1126256 
   8.400000000    -0.0714762    0.0283210    -0.0010888    0.0009949    -0.0008178    0.0009615     0.1690625    0.1183374 
   8.420000000    -0.0729461    0.1118644     0.0018351    0.0014680     0.0017410    0.0013418     0.2149037    0.0765421 
   8.440000000    -0.0135148    0.1190987     0.0012430   -0.0027107     0.0011323   -0.0027053     0.1740357    0.0341797 
   8.460000000    -0.0296923    0.0529022    -0.0028080   -0.0002512    -0.0027001   -0.0001059     0.1442686    0.0466995 
   8.480000000     0.0236726    0.0738940    -0.0001711    0.0022454    -0.0000804    0.0022282     0.1712880    0.0998448 
   8.500000000     0.0654539    0.0249648     0.0020632    0.0003310     0.0020826    0.0002054     0.2242785    0.0344782 
   8.520000000     0.0316577    0.0024033     0.0003674   -0.0023066     0.0002270   -0.0023084     0.2020420   -0.0341343 
   8.540000000     0.0646772   -0.0254239    -0.0020108    0.0002088    -0.0020238    0.0003175     0.1489954    0.0105957 
   8.560000000     0.0343347   -0.0237314     0.0000437    0.0010086     0.0001710    0.0011224     0.1511002    0.0364244 
   8.580000000     0.0189268   -0.0161431     0.0004337    0.0009383     0.0005231    0.0006480     0.1910129   -0.0005756 
   8.600000000    -0.0231604   -0.0770302     0.0019249   -0.0009976     0.0016308   -0.0008998     0.2018400   -0.0076933 
   8.620000000    -0.0544591   -0.0285087    -0.0016122   -0.0017409    -0.0014384   -0.0015165     0.1632628   -0.0285057 
   8.640000000    -0.0376915   -0.0003847    -0.0015604    0.0014083    -0.0014098    0.0012275     0.1507692   -0.0275139 
   8.660000000    -0.0813086   -0.0141432     0.0010962    0.0018372     0.0008525    0.0016804     0.1655419   -0.0081957 
   8.680000000    -0.0516966    0.0226097     0.0025172   -0.0012219     0.0024203   -0.0009826     0.2182332   -0.0335218 
   8.700000000     0.0220217    0.0140065    -0.0019419   -0.0026082    -0.0017132   -0.0026053     0.1881799   -0.0923404 
   8.720000000    -0.0200484    0.0275140    -0.0019197    0.0024074    -0.0020210    0.0022495     0.1124560   -0.1020199 
   8.740000000    -0.0202986    0.0756258     0.0017626    0.0014065     0.0017794    0.0014605     0.1272833   -0.0497454 
   8.760000000     0.0154211    0.0153129     0.0015543   -0.0014336     0.0015204   -0.0013684     0.1946353   -0.0626180 
   8.780000000     0.0055609    0.0271792    -0.0014229   -0.0016906    -0.0012337   -0.0016011     0.1408503   -0.1227144 
   8.800000000     0.0330881    0.0038650    -0.0011684    0.0016371    -0.0012195    0.0013827     0.0851384   -0.1323424 
   8.820000000     0.0081417   -0.0865422     0.0006675    0.0005527     0.0005289    0.0007135     0.1191744   -0.0769116 
   8.840000000    -0.0207121   -0.0348536     0.0008586    0.0002462     0.0009689    0.0003393     0.1162404   -0.0875619 
   8.860000000     0.0031615    0.0306447     0.0007840   -0.0017008     0.0008628   -0.0018361     0.1345998   -0.1233169 
   8.880000000    -0.0221391   -0.0327235    -0.0019884   -0.0002056    -0.0022103   -0.0002651     0.1292717   -0.1491242 
   8.900000000    -0.0619184   -0.0629574    -0.0005984    0.0016818    -0.0004945    0.0018649     0.0811641   -0.1525525 
   8.920000000    -0.0724175   -0.0285386     0.0019570    0.0011154     0.0020899    0.0009728     0.0621559   -0.1050271 
   8.940000000    -0.0991838    0.0376078     0.0013886   -0.0026832     0.0012750   -0.0027261     0.1058156   -0.1296163 
   8.960000000    -0.0640339    0.0685571    -0.0033125   -0.0004179    -0.0033297   -0.0004329     0.0948918   -0.1798531 
   8.980000000    -0.0237880    0.0459056     0.0001985    0.0024201     0.0002649    0.0025668     0.0429103   -0.2074967 
   9.000000000    -0.0155210    0.0530442     0.0016533    0.0000922     0.0017474   -0.0000515    -0.0114858   -0.1312007 
   9.020000000    -0.0265034    0.0612013     0.0007250   -0.0015207     0.0006601   -0.0014281     0.0493115   -0.1282438 
   9.040000000    -0.0091745    0.0771500    -0.0017067   -0.0008795    -0.0016477   -0.0009102     0.0572881   -0.1789958 
   9.060000000     0.0689991    0.0724770    -0.0005885    0.0016357    -0.0006906    0.0016787     0.0126055   -0.1684472 
   9.080000000     0.0681287    0.0297025     0.0006285    0.0006033     0.0008426    0.0005577    -0.0376715   -0.1930923 
   9.100000000     0.0285080   -0.0010002     0.0015799   -0.0002707     0.0014660   -0.0003416    -0.0083587   -0.1255013 
   9.120000000     0.0597348   -0.0463861    -0.0005344   -0.0023267    -0.0004865   -0.0022527     0.0172874   -0.1309047 
   9.140000000     0.0415315   -0.0494103    -0.0024557    0.0013347    -0.0024384    0.0013816    -0.0017262   -0.2008762 
   9.160000000     0.0201227    0.0008000     0.0010804    0.0016983     0.0011464    0.0015906    -0.0642340   -0.2192937 
   9.180000000     0.0072925   -0.0818796     0.0021991   -0.0004198     0.0020499   -0.0003292    -0.1022597   -0.1463449 
   9.200000000    -0.0461392   -0.1154832    -0.0005476   -0.0027398    -0.0004767   -0.0026567    -0.0585826   -0.1308857 
   9.220000000    -0.0876469   -0.0574293    -0.0030593    0.0011345    -0.0030366    0.0010049    -0.0577960   -0.1771198 
   9.240000000    -0.1051554   -0.0276886     0.0015925    0.0022096     0.0014668    0.0022001    -0.1029563   -0.2001914 
   9.260000000    -0.0880011    0.0021369     0.0015162   -0.0008528     0.0016015   -0.0008050    -0.1295143   -0.1201801 
   9.280000000    -0.0585052    0.0280200    -0.0001476   -0.0018516    -0.0000064   -0.0019267    -0.1255222   -0.1076021 
   9.300000000    -0.0931989    0.0716304    -0.0021812    0.0002601    -0.0023121    0.0002721    -0.1215500   -0.1186028 
   9.320000000    -0.0864895    0.0832901     0.0003409    0.0016507     0.0003633    0.0017300    -0.1000501   -0.1291954 
   9.340000000    -0.0584432    0.0636361     0.0011668    0.0002782     0.0011595    0.0002548    -0.1582319   -0.1399757 
   9.360000000     0.0318175    0.0995230     0.0014865   -0.0012785     0.0014280   -0.0012306    -0.1923815   -0.0994752 
   9.380000000     0.0319618    0.0482531    -0.0021517   -0.0018105    -0.0020304   -0.0018762    -0.1504314   -0.0767557 
   9.400000000    -0.0161158    0.0523754    -0.0015583    0.0025295    -0.0016021    0.0025251    -0.1172006   -0.0960225 
   9.420000000     0.0659524    0.0381033     0.0021161    0.0011167     0.0021079    0.0011758    -0.2056609   -0.1187457 
   9.440000000     0.0345787    0.0068062     0.0019049   -0.0015288     0.0020345   -0.0016918    -0.2405588   -0.0642444 
   9.460000000    -0.0249649    0.0358518    -0.0022799   -0.0024174    -0.0023586   -0.0024045    -0.2002525   -0.0015474 
   9.480000000     0.0148174    0.0067004    -0.0020997    0.0027661    -0.0020612    0.0028682    -0.1699434   -0.0283822 
   9.500000000    -0.0095795   -0.0015069     0.0025104    0.0012742     0.0026153    0.0012452    -0.2077673   -0.0160400 
   9.520000000    -0.0116526    0.0335332     0.0013789   -0.0015669     0.0012908   -0.0017107    -0.2198163   -0.0080917 
   9.540000000    -0.0191458   -0.0066788    -0.0010928   -0.0019265    -0.0011612   -0.0018385    -0.2202745    0.0344489 
   9.560000000    -0.0108380    0.0053805    -0.0026595    0.0012896    -0.0026058    0.0012839    -0.1845031    0.0453499 
   9.580000000     0.0403600    0.0489683     0.0015628    0.0021841     0.0014699    0.0021313    -0.1733843    0.0431374 
   9.600000000     0.0242640    0.0687220     0.0022077   -0.0007377     0.0021967   -0.0007458    -0.1727140    0.0036445 
   9.620000000     0.0105576   -0.0061799    -0.0002256   -0.0028010    -0.0000840   -0.0028315    -0.2568302    0.0447009 
   9.640000000    -0.0049102   -0.0473466    -0.0039094    0.0004697    -0.0039310    0.0004616    -0.2248983    0.1328417 
   9.660000000     0.0020044   -0.0178692     0.0014155    0.0037269     0.0013949    0.0037528    -0.1635273    0.1153567 
   9.680000000    -0.0060015   -0.0519691     0.0029985   -0.0014200     0.0030896   -0.0013750    -0.1700067    0.0542663 
   9.700000000    -0.0316120   -0.0730101    -0.0006172   -0.0028297    -0.0006794   -0.0029558    -0.2639969    0.1231745 
   9.720000000    -0.0176613   -0.0291854    -0.0035475    0.0005889    -0.0036595    0.0006438    -0.1851308    0.1820509 
   9.740000000    -0.1030950   -0.0252413     0.0012854    0.0035264     0.0013211    0.0035725    -0.1422521    0.1787669 
   9.760000000    -0.1807129    0.0086008     0.0026029   -0.0015007     0.0026672   -0.0015988    -0.1367988    0.1455104 
   9.780000000    -0.1226263    0.0586074    -0.0006176   -0.0017132    -0.0007460   -0.0017363    -0.1721134    0.1533273 
   9.800000000    -0.0757138    0.0893279    -0.0019606   -0.0002313    -0.0019730   -0.0000718    -0.1379952    0.1931356 
   9.820000000    -0.0953450    0.1251718    -0.0007407    0.0021838    -0.0006505    0.0021916    -0.1393079    0.1971112 
   9.840000000    -0.0571488    0.1176955     0.0023699    0.0003060     0.0023134    0.0002147    -0.1213754    0.2402727 
   9.860000000     0.0038222    0.1271190     0.0006163   -0.0015507     0.0005884   -0.0014120    -0.0887914    0.1687655 
   9.880000000     0.0743434    0.1778435    -0.0013677   -0.0015669    -0.0013430   -0.0016324    -0.1309393    0.1978554 
   9.900000000     0.1196941    0.1337101    -0.0022900    0.0018746    -0.0022436    0.0019680    -0.1290300    0.2734143 
   9.920000000     0.1203058    0.0215241     0.0025241    0.0020605     0.0025301    0.0019560    -0.0420554    0.2933853 
   9.940000000     0.1023477   -0.0151102     0.0016015   -0.0020054     0.0015469   -0.0020591    -0.0227291    0.2082709 
   9.960000000     0.0651651   -0.0281941    -0.0016225   -0.0019996    -0.0016198   -0.0019746    -0.0561340    0.2353171 
   9.980000000     0.0518873   -0.0789839    -0.0025893    0.0017704    -0.0024467    0.0018248    -0.0415882    0.3028661 
  10.000000000     0.0644568   -0.1295470     0.0021562    0.0022184     0.0020973    0.0021201     0.0150448    0.2832392 
