! 4/11/2025 3:36:06 PM
! C:\ANRITSUVNA\LELEC2350\LAB1_2025\GROUP1_65.S2P
! CHANNEL.1
! TR.MEASUREMENT
! CORRECTED.DATA
! RF.CORRECTION: FULL.TWO.PORT.CAL.PORT.1.2
! AVERAGING.OFF
! IF.BANDWIDTH: 300HZ
! SWEEPTYPE:  FREQ.SWEEP(Linear)
! Reference Plane Port Info
! PORT:              PORT1              PORT2             
! DISTANCE:          0  m               0  m              
! TIME:              0  s               0  s              
! PHASE.OFFSET:      0 °                0 °               
! LOSS:              0  dB              0  dB             
! REF.LOSS:          0  dB              0  dB             
! REF.FREQ:          0  Hz              0  Hz             
! Power Info
! POWER:             5  dBm             5  dBm            
! EFF.POWER:         5  dBm             5  dBm            
# GHZ S RI R 50.0
! FREQ.GHZ         S11RE         S11IM         S21RE         S21IM         S12RE         S12IM         S22RE         S22IM         
!; PortSelection: Port_12
   7.000000000    -0.0721670   -0.0435739    -0.0122693    0.0133218    -0.0123978    0.0133542    -0.0480257   -0.0987400 
   7.020000000    -0.0852861    0.0383788     0.0139788    0.0127271     0.0139512    0.0130265    -0.0325416   -0.1189850 
   7.040000000    -0.0350594    0.0902491     0.0120394   -0.0142418     0.0120995   -0.0138355    -0.0600543   -0.1119377 
   7.060000000    -0.0315708    0.0337779    -0.0130033   -0.0122097    -0.0130070   -0.0119587    -0.0556025   -0.1022313 
   7.080000000     0.0054118    0.0462001    -0.0126815    0.0125558    -0.0126368    0.0128038    -0.0646163   -0.0990544 
   7.100000000     0.0710499    0.0749214     0.0121558    0.0124989     0.0121979    0.0127256    -0.0710492   -0.1034594 
   7.120000000     0.0715932    0.0566958     0.0124412   -0.0112084     0.0127494   -0.0114976    -0.0676812   -0.0794196 
   7.140000000     0.0925137   -0.0006159    -0.0097673   -0.0127261    -0.0100315   -0.0128578    -0.0751512   -0.0961903 
   7.160000000     0.0986963   -0.0848123    -0.0134556    0.0087243    -0.0136146    0.0087290    -0.0927394   -0.0947817 
   7.180000000     0.0016130   -0.1093819     0.0082406    0.0139631     0.0076236    0.0144370    -0.0895792   -0.0805352 
   7.200000000    -0.0590438   -0.0945663     0.0144903   -0.0074854     0.0147503   -0.0073651    -0.0917185   -0.0804943 
   7.220000000    -0.0401960   -0.0877623    -0.0062214   -0.0141731    -0.0065920   -0.0140196    -0.1130182   -0.0925566 
   7.240000000    -0.0377431   -0.0412620    -0.0152849    0.0047517    -0.0150150    0.0049515    -0.1276085   -0.0723289 
   7.260000000    -0.0852856   -0.0064778     0.0043553    0.0162913     0.0043606    0.0162144    -0.1109874   -0.0507572 
   7.280000000    -0.1261740    0.0227287     0.0165328   -0.0042092     0.0169894   -0.0041729    -0.1173067   -0.0626435 
   7.300000000    -0.0672873    0.0596053    -0.0043116   -0.0158130    -0.0045221   -0.0162097    -0.1469730   -0.0455494 
   7.320000000    -0.0124075    0.0720565    -0.0149660    0.0029486    -0.0149755    0.0030617    -0.1329487   -0.0302451 
   7.340000000     0.0019286    0.0759351     0.0016336    0.0149281     0.0015881    0.0148878    -0.1243102   -0.0319661 
   7.360000000     0.0360988    0.0100006     0.0148260   -0.0009264     0.0148570   -0.0006728    -0.1465137   -0.0290106 
   7.380000000     0.0308381   -0.0096178    -0.0000018   -0.0147727    -0.0000323   -0.0147725    -0.1481042   -0.0240314 
   7.400000000     0.0432450    0.0455455    -0.0137580   -0.0010932    -0.0138742   -0.0010084    -0.1329112   -0.0068022 
   7.420000000     0.0466890   -0.0086665    -0.0027848    0.0136027    -0.0030157    0.0137615    -0.1605649   -0.0077433 
   7.440000000     0.0251418   -0.0470675     0.0138634    0.0038071     0.0140429    0.0041154    -0.1617387    0.0143356 
   7.460000000     0.0288551   -0.0302365     0.0050073   -0.0141780     0.0049385   -0.0142272    -0.1498819    0.0259774 
   7.480000000    -0.0228315   -0.0438379    -0.0138996   -0.0050128    -0.0139985   -0.0049010    -0.1567476    0.0129652 
   7.500000000    -0.0392462   -0.0519874    -0.0056158    0.0128676    -0.0058635    0.0128902    -0.1627105    0.0405071 
   7.520000000     0.0110580   -0.0715882     0.0124870    0.0069863     0.0126402    0.0069014    -0.1482308    0.0535287 
   7.540000000    -0.0237381   -0.0606976     0.0074707   -0.0119335     0.0076093   -0.0122668    -0.1476401    0.0669097 
   7.560000000    -0.0893533   -0.0297700    -0.0113045   -0.0080643    -0.0115588   -0.0080352    -0.1505594    0.0487920 
   7.580000000    -0.1275679    0.0012332    -0.0087768    0.0101108    -0.0090902    0.0100353    -0.1401971    0.0865334 
   7.600000000    -0.0817437    0.0757455     0.0092288    0.0103740     0.0095496    0.0104030    -0.1419619    0.0716277 
   7.620000000    -0.0457301    0.0942190     0.0109645   -0.0094942     0.0109095   -0.0095940    -0.1508270    0.1017569 
   7.640000000    -0.0333969    0.1069202    -0.0086227   -0.0110776    -0.0086749   -0.0112082    -0.1318373    0.0910963 
   7.660000000     0.0888594    0.0673421    -0.0114307    0.0071562    -0.0117814    0.0072621    -0.1309802    0.1022659 
   7.680000000     0.0912758    0.0190942     0.0056906    0.0129923     0.0058326    0.0130665    -0.1388072    0.1168984 
   7.700000000     0.0655436    0.0254732     0.0147518   -0.0058254     0.0146305   -0.0058553    -0.1351782    0.1389359 
   7.720000000     0.0538642   -0.0869108    -0.0058987   -0.0148527    -0.0057822   -0.0148189    -0.1151499    0.1271749 
   7.740000000     0.0168283   -0.0928969    -0.0150180    0.0047806    -0.0151527    0.0048661    -0.1157473    0.1459401 
   7.760000000     0.0186351   -0.0459005     0.0038727    0.0150449     0.0040733    0.0153698    -0.1131263    0.1606520 
   7.780000000    -0.0432671   -0.0869004     0.0163743   -0.0028919     0.0163395   -0.0033904    -0.1012759    0.1452719 
   7.800000000    -0.0967168   -0.0795030    -0.0031405   -0.0165681    -0.0033602   -0.0167332    -0.0794633    0.1630302 
   7.820000000    -0.0801388   -0.0133130    -0.0160668    0.0025221    -0.0163160    0.0026701    -0.0857286    0.1755102 
   7.840000000    -0.0911171    0.0396474     0.0021492    0.0156500     0.0022322    0.0157148    -0.0748288    0.1747020 
   7.860000000    -0.0639480    0.0624023     0.0151694   -0.0007772     0.0151477   -0.0007090    -0.0718844    0.1822282 
   7.880000000    -0.0065286    0.0291028     0.0001390   -0.0152188     0.0001333   -0.0153989    -0.0648312    0.1720184 
   7.900000000     0.0002897    0.0494868    -0.0145409   -0.0010906    -0.0146549   -0.0011981    -0.0461278    0.2019990 
   7.920000000    -0.0091228    0.0593040    -0.0026294    0.0148831    -0.0024384    0.0148275    -0.0367159    0.2024898 
   7.940000000     0.0090508    0.0165258     0.0146083    0.0037111     0.0146036    0.0037017    -0.0287087    0.1832465 
   7.960000000     0.0891591    0.0045891     0.0049152   -0.0148755     0.0050691   -0.0149300    -0.0110294    0.2041144 
   7.980000000     0.0895475   -0.0287607    -0.0148205   -0.0052941    -0.0150235   -0.0055307     0.0097072    0.2260525 
   8.000000000    -0.0297660   -0.0569911    -0.0065266    0.0143567    -0.0063771    0.0143243     0.0140403    0.1885935 
   8.020000000    -0.0354098   -0.0488757     0.0141944    0.0071091     0.0144439    0.0070910     0.0403679    0.1974781 
   8.040000000    -0.0092270   -0.0625052     0.0077014   -0.0139967     0.0076604   -0.0140135     0.0374831    0.1853953 
   8.060000000    -0.0486929   -0.0264305    -0.0138926   -0.0080201    -0.0140594   -0.0079084     0.0432208    0.1993652 
   8.080000000    -0.0539991   -0.0560565    -0.0077976    0.0127402    -0.0077595    0.0129591     0.0599629    0.1891286 
   8.100000000    -0.0904425   -0.0506696     0.0118150    0.0082999     0.0120639    0.0085000     0.0559191    0.1757243 
   8.120000000    -0.1021539    0.0904207     0.0089730   -0.0106647     0.0092471   -0.0108691     0.0716194    0.1796682 
   8.140000000    -0.0514622    0.1304608    -0.0099070   -0.0101280    -0.0099955   -0.0102546     0.0671411    0.1885866 
   8.160000000    -0.0145378    0.0520304    -0.0101755    0.0088623    -0.0102259    0.0088420     0.0942051    0.1844119 
   8.180000000     0.0357845    0.0470857     0.0077946    0.0111463     0.0077317    0.0112145     0.1054153    0.1596785 
   8.200000000     0.0642032    0.0499744     0.0119222   -0.0067053     0.0118644   -0.0067929     0.1127534    0.1696120 
   8.220000000     0.0377982    0.0251247    -0.0054165   -0.0127741    -0.0057305   -0.0128422     0.1221706    0.1646240 
   8.240000000     0.0868673   -0.0260067    -0.0136058    0.0051206    -0.0135699    0.0054747     0.1489397    0.1454867 
   8.260000000     0.1177958   -0.0792024     0.0045388    0.0139604     0.0046205    0.0141666     0.1291815    0.1343993 
   8.280000000     0.0263239   -0.0923307     0.0143151   -0.0039192     0.0145457   -0.0040240     0.1354469    0.1419484 
   8.300000000    -0.0635774   -0.1150921    -0.0033800   -0.0141979    -0.0036138   -0.0141921     0.1667937    0.1143194 
   8.320000000    -0.0765171   -0.0894193    -0.0141081    0.0026236    -0.0139510    0.0025982     0.1280181    0.1149689 
   8.340000000    -0.0711662   -0.0359328     0.0017172    0.0134475     0.0016918    0.0136704     0.1388981    0.1171402 
   8.360000000    -0.1347119   -0.0449866     0.0134793   -0.0005829     0.0136779   -0.0007147     0.1724917    0.1087804 
   8.380000000    -0.1146018   -0.0082768     0.0002822   -0.0129710     0.0001093   -0.0129202     0.1735127    0.0838525 
   8.400000000    -0.0574676    0.0191156    -0.0125607   -0.0019260    -0.0125684   -0.0017630     0.1427963    0.0910297 
   8.420000000    -0.0817378    0.1257117    -0.0030227    0.0119875    -0.0030996    0.0120034     0.1859711    0.0957334 
   8.440000000    -0.0234997    0.1284545     0.0118316    0.0049856     0.0118824    0.0052236     0.1865747    0.0680391 
   8.460000000    -0.0157384    0.0396627     0.0065876   -0.0124475     0.0064035   -0.0124606     0.1806316    0.0393797 
   8.480000000     0.0350130    0.0702057    -0.0123626   -0.0074744    -0.0122642   -0.0074192     0.1671437    0.0621562 
   8.500000000     0.0530274    0.0344957    -0.0081019    0.0126662    -0.0082272    0.0126258     0.1879555    0.0321971 
   8.520000000     0.0269238   -0.0023892     0.0120026    0.0088035     0.0121700    0.0087837     0.1912946    0.0014232 
   8.540000000     0.0836753   -0.0370785     0.0099917   -0.0120918     0.0098906   -0.0122213     0.1821891    0.0277377 
   8.560000000     0.0378991   -0.0210226    -0.0119148   -0.0099214    -0.0120733   -0.0099520     0.1703880    0.0056437 
   8.580000000    -0.0008784   -0.0082410    -0.0100771    0.0113229    -0.0101413    0.0113606     0.1640420   -0.0224860 
   8.600000000    -0.0198198   -0.0830998     0.0101064    0.0104002     0.0102536    0.0104400     0.1748784    0.0138077 
   8.620000000    -0.0357612   -0.0328941     0.0112512   -0.0089409     0.0112458   -0.0090375     0.1805369    0.0052898 
   8.640000000    -0.0449669    0.0027220    -0.0084308   -0.0117760    -0.0082836   -0.0116860     0.1851515   -0.0411286 
   8.660000000    -0.1040505   -0.0182802    -0.0124065    0.0067955    -0.0124147    0.0068560     0.1587186   -0.0418611 
   8.680000000    -0.0407252    0.0178123     0.0058966    0.0131525     0.0058677    0.0132066     0.1852298   -0.0346844 
   8.700000000     0.0445988    0.0181331     0.0142808   -0.0046195     0.0145105   -0.0046660     0.1803989   -0.0573419 
   8.720000000    -0.0325728    0.0279407    -0.0042878   -0.0155430    -0.0044529   -0.0154427     0.1478735   -0.0904962 
   8.740000000    -0.0398747    0.0719564    -0.0156926    0.0042405    -0.0156348    0.0041546     0.1409140   -0.0803836 
   8.760000000     0.0335706    0.0171032     0.0032850    0.0157552     0.0033416    0.0159763     0.1685514   -0.0836637 
   8.780000000     0.0118421    0.0337355     0.0160754   -0.0024957     0.0161168   -0.0025960     0.1139332   -0.1001256 
   8.800000000     0.0126857    0.0040166    -0.0020837   -0.0166781    -0.0021128   -0.0167045     0.1053380   -0.0994255 
   8.820000000     0.0097877   -0.0976423    -0.0160136    0.0024009    -0.0161834    0.0026093     0.1491322   -0.0929276 
   8.840000000    -0.0007143   -0.0351639     0.0014474    0.0150636     0.0014753    0.0150908     0.1100058   -0.1172932 
   8.860000000    -0.0064150    0.0414652     0.0141915   -0.0001881     0.0143197   -0.0002887     0.1024283   -0.1238176 
   8.880000000    -0.0400435   -0.0362307     0.0016516   -0.0139732     0.0014484   -0.0139739     0.1234646   -0.1129160 
   8.900000000    -0.0521486   -0.0687063    -0.0140718   -0.0024627    -0.0141139   -0.0023660     0.1164213   -0.1470194 
   8.920000000    -0.0557293   -0.0184872    -0.0035463    0.0132738    -0.0034806    0.0132872     0.0728419   -0.1349052 
   8.940000000    -0.1139876    0.0361532     0.0128206    0.0050182     0.0127572    0.0048593     0.0811239   -0.1488073 
   8.960000000    -0.0851755    0.0586957     0.0062293   -0.0126118     0.0062539   -0.0124648     0.0666757   -0.1561990 
   8.980000000    -0.0123446    0.0520792    -0.0126561   -0.0074717    -0.0126387   -0.0074553     0.0654061   -0.1777963 
   9.000000000    -0.0015891    0.0667227    -0.0077423    0.0124768    -0.0078110    0.0123575     0.0183589   -0.1493432 
   9.020000000    -0.0392943    0.0485039     0.0118098    0.0082414     0.0119118    0.0083276     0.0397602   -0.1554638 
   9.040000000    -0.0196685    0.0636603     0.0090473   -0.0112336     0.0089412   -0.0113032     0.0239882   -0.1774398 
   9.060000000     0.0816079    0.0895695    -0.0105208   -0.0096402    -0.0104459   -0.0096347     0.0116685   -0.1321932 
   9.080000000     0.0727505    0.0473011    -0.0100682    0.0097419    -0.0101300    0.0096881    -0.0002488   -0.1903667 
   9.100000000     0.0181104   -0.0183710     0.0084933    0.0104234     0.0085718    0.0104990    -0.0002130   -0.1567574 
   9.120000000     0.0620488   -0.0567279     0.0113851   -0.0074345     0.0113438   -0.0074617    -0.0102991   -0.1494455 
   9.140000000     0.0484606   -0.0329133    -0.0068329   -0.0120394    -0.0068133   -0.0119363    -0.0265317   -0.1752124 
   9.160000000     0.0107522    0.0088069    -0.0122724    0.0061545    -0.0122577    0.0060874    -0.0378882   -0.1928714 
   9.180000000     0.0052281   -0.0994037     0.0049985    0.0123791     0.0048855    0.0123444    -0.0778190   -0.1657746 
   9.200000000    -0.0323876   -0.1175626     0.0130392   -0.0035843     0.0129584   -0.0035882    -0.0717029   -0.1587013 
   9.220000000    -0.0843217   -0.0387675    -0.0026818   -0.0138077    -0.0025271   -0.0137468    -0.0903763   -0.1719976 
   9.240000000    -0.1165983   -0.0294493    -0.0142543    0.0023488    -0.0141874    0.0021272    -0.0988455   -0.1630368 
   9.260000000    -0.0860340   -0.0130549     0.0018314    0.0139526     0.0016677    0.0138739    -0.0975521   -0.1217910 
   9.280000000    -0.0510508    0.0399711     0.0134933   -0.0007938     0.0135469   -0.0005465    -0.1184564   -0.1357260 
   9.300000000    -0.0967297    0.0906947     0.0004621   -0.0135186     0.0005979   -0.0136167    -0.1482257   -0.1349754 
   9.320000000    -0.0882584    0.0668156    -0.0137125   -0.0013814    -0.0137026   -0.0014977    -0.1212799   -0.0989938 
   9.340000000    -0.0492219    0.0472767    -0.0016177    0.0134455    -0.0018193    0.0134907    -0.1308736   -0.1204241 
   9.360000000     0.0373977    0.1225809     0.0124907    0.0024608     0.0126258    0.0026306    -0.1717340   -0.1186459 
   9.380000000     0.0294073    0.0607160     0.0038982   -0.0116484     0.0040378   -0.0116626    -0.1614935   -0.1048136 
   9.400000000    -0.0152327    0.0314004    -0.0112427   -0.0053393    -0.0113059   -0.0056076    -0.1505473   -0.0862859 
   9.420000000     0.0784993    0.0358174    -0.0064701    0.0111232    -0.0067590    0.0110614    -0.1972160   -0.0860446 
   9.440000000     0.0319503    0.0245272     0.0104939    0.0074048     0.0106154    0.0076606    -0.2121226   -0.0684722 
   9.460000000    -0.0400304    0.0340925     0.0084513   -0.0098541     0.0087286   -0.0099707    -0.1932933   -0.0289513 
   9.480000000     0.0235929   -0.0116636    -0.0096409   -0.0098124    -0.0097215   -0.0100821    -0.1992056   -0.0423074 
   9.500000000     0.0006306    0.0002390    -0.0110360    0.0098370    -0.0110481    0.0099359    -0.2235097    0.0138935 
   9.520000000    -0.0259115    0.0491603     0.0096828    0.0111572     0.0096941    0.0111192    -0.1946072    0.0070455 
   9.540000000    -0.0219461   -0.0135274     0.0114593   -0.0087770     0.0114082   -0.0087913    -0.2007478    0.0166775 
   9.560000000     0.0084886   -0.0113024    -0.0083265   -0.0120242    -0.0083749   -0.0120511    -0.1979395    0.0178746 
   9.580000000     0.0388252    0.0613784    -0.0121935    0.0076445    -0.0121197    0.0077176    -0.2048083    0.0565396 
   9.600000000     0.0028109    0.0834866     0.0071256    0.0122387     0.0073149    0.0121492    -0.1620976    0.0332209 
   9.620000000     0.0160313   -0.0191771     0.0118893   -0.0057378     0.0118380   -0.0057862    -0.2296705    0.0416787 
   9.640000000     0.0155217   -0.0621603    -0.0040757   -0.0125501    -0.0041297   -0.0124908    -0.2184864    0.1046440 
   9.660000000    -0.0085922   -0.0089518    -0.0130922    0.0032203    -0.0130363    0.0032821    -0.1970783    0.1043743 
   9.680000000    -0.0227747   -0.0526770     0.0024051    0.0135462     0.0024249    0.0135391    -0.1807681    0.0848782 
   9.700000000    -0.0169670   -0.0837222     0.0134649   -0.0018447     0.0134364   -0.0018059    -0.2388129    0.1346836 
   9.720000000    -0.0004031   -0.0236202    -0.0008896   -0.0134418    -0.0009715   -0.0133899    -0.1659270    0.1642326 
   9.740000000    -0.1224307   -0.0186683    -0.0138580    0.0000488    -0.0137606    0.0000798    -0.1612247    0.1509989 
   9.760000000    -0.1983942   -0.0043707    -0.0005139    0.0139270    -0.0005099    0.0137622    -0.1663082    0.1626647 
   9.780000000    -0.1078852    0.0529870     0.0137862    0.0006340     0.0137163    0.0006494    -0.1587833    0.1800452 
   9.800000000    -0.0694776    0.1030115     0.0008972   -0.0129124     0.0008567   -0.0128943    -0.1143083    0.1888190 
   9.820000000    -0.1178032    0.1246425    -0.0122162   -0.0018605    -0.0122151   -0.0018698    -0.1365326    0.1689764 
   9.840000000    -0.0579901    0.1029155    -0.0024434    0.0112126    -0.0025070    0.0110259    -0.1538551    0.2335956 
   9.860000000     0.0240794    0.1282829     0.0103882    0.0035009     0.0102843    0.0036089    -0.0933365    0.2007825 
   9.880000000     0.0661270    0.1931684     0.0042988   -0.0095002     0.0042656   -0.0094221    -0.1083028    0.2060597 
   9.900000000     0.0980491    0.1342869    -0.0083015   -0.0054825    -0.0082578   -0.0054150    -0.1135393    0.2546754 
   9.920000000     0.1337586    0.0156945    -0.0066016    0.0077034    -0.0066595    0.0076618    -0.0608355    0.2677996 
   9.940000000     0.1183463   -0.0064523     0.0069814    0.0078273     0.0070051    0.0079940    -0.0484005    0.2290570 
   9.960000000     0.0462160   -0.0243311     0.0086835   -0.0068844     0.0087174   -0.0068992    -0.0422563    0.2558993 
   9.980000000     0.0391450   -0.0928814    -0.0061640   -0.0090315    -0.0061002   -0.0089037    -0.0212392    0.2973308 
  10.000000000     0.0856009   -0.1288202    -0.0094657    0.0053171    -0.0096160    0.0051809     0.0157517    0.2559498 
