! 4/11/2025 3:33:35 PM
! C:\ANRITSUVNA\LELEC2350\LAB1_2025\GROUP1_45.S2P
! CHANNEL.1
! TR.MEASUREMENT
! CORRECTED.DATA
! RF.CORRECTION: FULL.TWO.PORT.CAL.PORT.1.2
! AVERAGING.OFF
! IF.BANDWIDTH: 300HZ
! SWEEPTYPE:  FREQ.SWEEP(Linear)
! Reference Plane Port Info
! PORT:              PORT1              PORT2             
! DISTANCE:          0  m               0  m              
! TIME:              0  s               0  s              
! PHASE.OFFSET:      0 °                0 °               
! LOSS:              0  dB              0  dB             
! REF.LOSS:          0  dB              0  dB             
! REF.FREQ:          0  Hz              0  Hz             
! Power Info
! POWER:             5  dBm             5  dBm            
! EFF.POWER:         5  dBm             5  dBm            
# GHZ S RI R 50.0
! FREQ.GHZ         S11RE         S11IM         S21RE         S21IM         S12RE         S12IM         S22RE         S22IM         
!; PortSelection: Port_12
   7.000000000    -0.0684001   -0.0266857     0.0006531    0.0066375     0.0006760    0.0066145    -0.0392925   -0.1044805 
   7.020000000    -0.0780573    0.0470531     0.0069413    0.0015683     0.0069943    0.0016686    -0.0310304   -0.1239008 
   7.040000000    -0.0390227    0.0659908     0.0015480   -0.0091435     0.0016822   -0.0090130    -0.0685122   -0.1209054 
   7.060000000    -0.0384726    0.0357567    -0.0084411    0.0004136    -0.0083449    0.0005037    -0.0638836   -0.0878050 
   7.080000000     0.0108195    0.0688932    -0.0003694    0.0065850    -0.0002830    0.0066481    -0.0528673   -0.0960141 
   7.100000000     0.0754631    0.0737098     0.0059583    0.0017951     0.0060413    0.0018299    -0.0671711   -0.1076991 
   7.120000000     0.0683462    0.0322319     0.0035325   -0.0070018     0.0036447   -0.0072245    -0.0674694   -0.0889081 
   7.140000000     0.0892515    0.0074600    -0.0084404   -0.0025279    -0.0086530   -0.0024984    -0.0896197   -0.0926098 
   7.160000000     0.1008067   -0.0687281    -0.0017834    0.0071557    -0.0018673    0.0072459    -0.0867847   -0.0832466 
   7.180000000     0.0020542   -0.1176571     0.0061796    0.0027770     0.0060991    0.0030589    -0.0821618   -0.0843700 
   7.200000000    -0.0552317   -0.1101284     0.0046011   -0.0065564     0.0046806   -0.0064849    -0.0882677   -0.0868652 
   7.220000000    -0.0412517   -0.0732137    -0.0083091   -0.0043172    -0.0083918   -0.0041309    -0.1236850   -0.1002682 
   7.240000000    -0.0391796   -0.0337252    -0.0023800    0.0078689    -0.0022964    0.0078157    -0.1343099   -0.0594675 
   7.260000000    -0.0873257   -0.0220771     0.0058720    0.0024684     0.0059068    0.0024114    -0.1010198   -0.0482903 
   7.280000000    -0.1236815    0.0153096     0.0039075   -0.0050824     0.0040272   -0.0052368    -0.1130765   -0.0652418 
   7.300000000    -0.0692976    0.0782419    -0.0060063   -0.0044581    -0.0062133   -0.0044894    -0.1482230   -0.0554258 
   7.320000000    -0.0113031    0.0710826    -0.0029295    0.0060480    -0.0028686    0.0061052    -0.1474301   -0.0256522 
   7.340000000     0.0036518    0.0566490     0.0036156    0.0025447     0.0036101    0.0025099    -0.1169529   -0.0219317 
   7.360000000     0.0346376    0.0150456     0.0042284   -0.0021947     0.0042154   -0.0021241    -0.1407393   -0.0290649 
   7.380000000     0.0245391    0.0132938    -0.0022895   -0.0061064    -0.0023431   -0.0060562    -0.1423037   -0.0316918 
   7.400000000     0.0464029    0.0380997    -0.0062215    0.0036057    -0.0062315    0.0037070    -0.1453915   -0.0141697 
   7.420000000     0.0510166   -0.0260301     0.0031584    0.0052505     0.0032082    0.0053187    -0.1643068    0.0044960 
   7.440000000     0.0202950   -0.0376094     0.0054266   -0.0020443     0.0054269   -0.0020099    -0.1548494    0.0179246 
   7.460000000     0.0188207   -0.0183293    -0.0012276   -0.0067275    -0.0012123   -0.0066143    -0.1418174    0.0235955 
   7.480000000    -0.0146829   -0.0545498    -0.0077937    0.0027133    -0.0077031    0.0027465    -0.1602515    0.0001143 
   7.500000000    -0.0282902   -0.0589007     0.0038502    0.0060466     0.0036971    0.0060888    -0.1759856    0.0464744 
   7.520000000     0.0027199   -0.0602401     0.0046197   -0.0025338     0.0045554   -0.0025281    -0.1424832    0.0634175 
   7.540000000    -0.0336092   -0.0560004    -0.0008213   -0.0045761    -0.0008445   -0.0046512    -0.1399003    0.0680631 
   7.560000000    -0.0771261   -0.0393542    -0.0054880    0.0004269    -0.0055322    0.0004685    -0.1447456    0.0371944 
   7.580000000    -0.1203829   -0.0001135     0.0006137    0.0049904     0.0004993    0.0049820    -0.1549140    0.0816059 
   7.600000000    -0.0980542    0.0846795     0.0040864    0.0002692     0.0041119    0.0002101    -0.1431511    0.0844253 
   7.620000000    -0.0498545    0.0935273     0.0019072   -0.0039377     0.0018814   -0.0039396    -0.1452907    0.1055405 
   7.640000000    -0.0124017    0.0978940    -0.0050681   -0.0032201    -0.0050026   -0.0033127    -0.1212060    0.0869058 
   7.660000000     0.0868693    0.0677859    -0.0028779    0.0061864    -0.0030859    0.0062526    -0.1378703    0.0890972 
   7.680000000     0.0726087    0.0277989     0.0058794    0.0024893     0.0058905    0.0025412    -0.1491389    0.1249187 
   7.700000000     0.0726608    0.0227591     0.0031416   -0.0055966     0.0031527   -0.0055298    -0.1310579    0.1475301 
   7.720000000     0.0717689   -0.0887329    -0.0059572   -0.0037507    -0.0058267   -0.0038525    -0.1052015    0.1290471 
   7.740000000     0.0055095   -0.0882632    -0.0036373    0.0066902    -0.0037417    0.0067632    -0.1111927    0.1323602 
   7.760000000     0.0029315   -0.0470188     0.0063030    0.0022323     0.0064080    0.0022895    -0.1273254    0.1580194 
   7.780000000    -0.0315972   -0.0915187     0.0020202   -0.0047535     0.0019403   -0.0048326    -0.1034534    0.1571934 
   7.800000000    -0.0829147   -0.0767435    -0.0031457   -0.0031091    -0.0032243   -0.0031887    -0.0707006    0.1677731 
   7.820000000    -0.0955997   -0.0113219    -0.0047238    0.0034409    -0.0048470    0.0035391    -0.0756112    0.1681273 
   7.840000000    -0.0968251    0.0385935     0.0039468    0.0042558     0.0040632    0.0043319    -0.0835923    0.1627601 
   7.860000000    -0.0444912    0.0609588     0.0040061   -0.0029565     0.0040410   -0.0030167    -0.0822281    0.1908842 
   7.880000000    -0.0062763    0.0320170    -0.0016601   -0.0050389    -0.0016998   -0.0051002    -0.0599876    0.1792301 
   7.900000000    -0.0233932    0.0503489    -0.0068231    0.0018179    -0.0069504    0.0019096    -0.0360403    0.2023825 
   7.920000000    -0.0045849    0.0597378     0.0033858    0.0072897     0.0035423    0.0072111    -0.0348102    0.1899393 
   7.940000000     0.0313006    0.0167288     0.0061162   -0.0037252     0.0060934   -0.0038034    -0.0428907    0.1813577 
   7.960000000     0.0813520    0.0036192    -0.0028183   -0.0057144    -0.0028353   -0.0057906    -0.0107530    0.2138512 
   7.980000000     0.0672176   -0.0333960    -0.0059930    0.0022526    -0.0061561    0.0023319     0.0167567    0.2317378 
   8.000000000    -0.0169507   -0.0524049     0.0025295    0.0064140     0.0026604    0.0064025     0.0243979    0.1804238 
   8.020000000    -0.0146341   -0.0428422     0.0051623   -0.0028274     0.0051373   -0.0029821     0.0313781    0.1860120 
   8.040000000    -0.0203299   -0.0653703    -0.0014144   -0.0043344    -0.0014666   -0.0042921     0.0286740    0.1939452 
   8.060000000    -0.0637165   -0.0381920    -0.0045689   -0.0000207    -0.0045320    0.0000904     0.0466818    0.2073780 
   8.080000000    -0.0428025   -0.0501826    -0.0007564    0.0057020    -0.0006815    0.0057703     0.0722062    0.1891463 
   8.100000000    -0.0818451   -0.0392225     0.0059762   -0.0001093     0.0060337   -0.0001232     0.0556805    0.1613700 
   8.120000000    -0.1146300    0.0806236     0.0004313   -0.0050406     0.0005154   -0.0051341     0.0584572    0.1811132 
   8.140000000    -0.0575495    0.1149621    -0.0049521   -0.0017982    -0.0049965   -0.0018214     0.0664701    0.1980855 
   8.160000000    -0.0011883    0.0635429    -0.0024677    0.0061906    -0.0024717    0.0061616     0.1021088    0.1906035 
   8.180000000     0.0364828    0.0581851     0.0069612    0.0012477     0.0068774    0.0012205     0.1145619    0.1495154 
   8.200000000     0.0486854    0.0400930     0.0006980   -0.0056525     0.0006782   -0.0055525     0.1037737    0.1611855 
   8.220000000     0.0432221    0.0235885    -0.0043882   -0.0016193    -0.0045009   -0.0016523     0.1137387    0.1697483 
   8.240000000     0.0996061   -0.0124396    -0.0026469    0.0047317    -0.0025075    0.0048386     0.1511011    0.1545506 
   8.260000000     0.1074705   -0.0810835     0.0050816    0.0025787     0.0051589    0.0025522     0.1423715    0.1334398 
   8.280000000     0.0133785   -0.1075039     0.0019208   -0.0045790     0.0018971   -0.0046412     0.1338281    0.1291972 
   8.300000000    -0.0485972   -0.1093680    -0.0030833   -0.0021871    -0.0031059   -0.0021801     0.1559383    0.1124897 
   8.320000000    -0.0650952   -0.0741553    -0.0034372    0.0024218    -0.0033817    0.0024418     0.1239989    0.1249410 
   8.340000000    -0.0794432   -0.0454327     0.0024733    0.0044016     0.0025248    0.0043863     0.1493795    0.1241742 
   8.360000000    -0.1399768   -0.0604847     0.0045670   -0.0032300     0.0045795   -0.0033049     0.1799457    0.0983624 
   8.380000000    -0.1071663    0.0052954    -0.0024278   -0.0042146    -0.0024561   -0.0041072     0.1649604    0.0755776 
   8.400000000    -0.0591060    0.0346828    -0.0047967    0.0019353    -0.0047433    0.0019920     0.1335703    0.0957507 
   8.420000000    -0.0882494    0.1072205     0.0018922    0.0055512     0.0018566    0.0054983     0.1897705    0.1076596 
   8.440000000    -0.0216663    0.1132769     0.0055870   -0.0028069     0.0055397   -0.0027642     0.1993181    0.0653443 
   8.460000000    -0.0123381    0.0604442    -0.0023247   -0.0044592    -0.0023702   -0.0043214     0.1792913    0.0261470 
   8.480000000     0.0297655    0.0793522    -0.0041883    0.0013767    -0.0041284    0.0013716     0.1567345    0.0601599 
   8.500000000     0.0525581    0.0140829     0.0003985    0.0047550     0.0003937    0.0046494     0.1824969    0.0437939 
   8.520000000     0.0339733   -0.0032615     0.0049813   -0.0006598     0.0049311   -0.0006906     0.2030061    0.0063177 
   8.540000000     0.0811260   -0.0121358    -0.0002799   -0.0042737    -0.0002618   -0.0041904     0.1897691    0.0165929 
   8.560000000     0.0320071   -0.0238852    -0.0040475   -0.0008677    -0.0040259   -0.0008988     0.1619850   -0.0032747 
   8.580000000     0.0051197   -0.0328189    -0.0020062    0.0045920    -0.0020493    0.0045663     0.1522138   -0.0178927 
   8.600000000    -0.0170869   -0.0755159     0.0056529    0.0019564     0.0056030    0.0019279     0.1799382    0.0274950 
   8.620000000    -0.0458130   -0.0130040     0.0013985   -0.0055282     0.0014053   -0.0054308     0.1926533    0.0005742 
   8.640000000    -0.0431461   -0.0097424    -0.0045189   -0.0017121    -0.0044895   -0.0017926     0.1843102   -0.0533340 
   8.660000000    -0.0875911   -0.0350976    -0.0028141    0.0047056    -0.0028522    0.0046629     0.1458313   -0.0447422 
   8.680000000    -0.0447249    0.0342753     0.0051400    0.0030707     0.0051236    0.0031766     0.1800141   -0.0194993 
   8.700000000     0.0247409    0.0319573     0.0026143   -0.0055346     0.0027493   -0.0054950     0.1942256   -0.0525434 
   8.720000000    -0.0253104    0.0112501    -0.0042036   -0.0021680    -0.0042161   -0.0022288     0.1528132   -0.1018586 
   8.740000000    -0.0245258    0.0600772    -0.0032845    0.0039912    -0.0033795    0.0039555     0.1335492   -0.0900107 
   8.760000000     0.0198916    0.0350875     0.0037769    0.0035194     0.0037996    0.0035774     0.1559271   -0.0757445 
   8.780000000     0.0014316    0.0325025     0.0034284   -0.0039076     0.0034704   -0.0038881     0.1211370   -0.0867943 
   8.800000000     0.0288323   -0.0167706    -0.0026779   -0.0031650    -0.0027407   -0.0032838     0.1160458   -0.1058881 
   8.820000000     0.0147754   -0.0876016    -0.0043625    0.0020352    -0.0044627    0.0020476     0.1497501   -0.1049960 
   8.840000000    -0.0175153   -0.0137950     0.0019477    0.0049972     0.0019117    0.0051039     0.0957903   -0.1200212 
   8.860000000    -0.0073321    0.0253920     0.0054547   -0.0023526     0.0055446   -0.0023672     0.0988214   -0.1090702 
   8.880000000    -0.0230239   -0.0502480    -0.0020607   -0.0051649    -0.0020232   -0.0052277     0.1363968   -0.1093736 
   8.900000000    -0.0567547   -0.0531444    -0.0055064    0.0014463    -0.0056000    0.0014172     0.1239218   -0.1566035 
   8.920000000    -0.0764662   -0.0081993     0.0013855    0.0062926     0.0013988    0.0063261     0.0637083   -0.1467500 
   8.940000000    -0.1013274    0.0235124     0.0063020   -0.0021124     0.0063383   -0.0021161     0.0670365   -0.1387803 
   8.960000000    -0.0591006    0.0512720    -0.0022808   -0.0051664    -0.0023102   -0.0052682     0.0755918   -0.1437295 
   8.980000000    -0.0274128    0.0613036    -0.0042018    0.0012417    -0.0042430    0.0013226     0.0786055   -0.1826081 
   9.000000000    -0.0241590    0.0690210    -0.0002463    0.0045959    -0.0001997    0.0046031     0.0166481   -0.1632693 
   9.020000000    -0.0189035    0.0449657     0.0050680    0.0002666     0.0051062    0.0001897     0.0219726   -0.1579138 
   9.040000000     0.0001489    0.0683750     0.0002887   -0.0048647     0.0003087   -0.0049301     0.0234594   -0.1604207 
   9.060000000     0.0579549    0.0904866    -0.0039634   -0.0008303    -0.0040216   -0.0007290     0.0265610   -0.1287330 
   9.080000000     0.0563267    0.0376275    -0.0026050    0.0039914    -0.0024930    0.0040358     0.0059453   -0.2016313 
   9.100000000     0.0430926   -0.0171305     0.0048329    0.0029418     0.0048995    0.0028989    -0.0121373   -0.1685499 
   9.120000000     0.0687304   -0.0448672     0.0029792   -0.0054837     0.0029368   -0.0055790    -0.0224617   -0.1352268 
   9.140000000     0.0262418   -0.0369527    -0.0051406   -0.0022754    -0.0052368   -0.0022535    -0.0146889   -0.1640809 
   9.160000000     0.0135874   -0.0039777    -0.0029958    0.0043081    -0.0029766    0.0043806    -0.0263392   -0.2000492 
   9.180000000     0.0281966   -0.0899548     0.0047438    0.0035143     0.0048178    0.0034540    -0.0803677   -0.1813005 
   9.200000000    -0.0422536   -0.1038491     0.0035737   -0.0050913     0.0035584   -0.0051804    -0.0901976   -0.1561507 
   9.220000000    -0.1050009   -0.0491394    -0.0048670   -0.0025968    -0.0048866   -0.0024471    -0.0879945   -0.1530595 
   9.240000000    -0.1015729   -0.0381470    -0.0025049    0.0033753    -0.0024170    0.0033843    -0.0852995   -0.1621128 
   9.260000000    -0.0665489   -0.0015730     0.0025859    0.0035086     0.0026536    0.0033937    -0.0903727   -0.1337593 
   9.280000000    -0.0689453    0.0377819     0.0041285   -0.0027349     0.0040037   -0.0027674    -0.1333994   -0.1464932 
   9.300000000    -0.1104919    0.0722923    -0.0026046   -0.0038099    -0.0026918   -0.0037086    -0.1590665   -0.1184199 
   9.320000000    -0.0679742    0.0755109    -0.0035682    0.0015711    -0.0035370    0.0016077    -0.1081286   -0.0897599 
   9.340000000    -0.0383211    0.0671142     0.0003245    0.0046420     0.0003517    0.0046285    -0.1187807   -0.1270166 
   9.360000000     0.0118754    0.1070772     0.0059098   -0.0010537     0.0058896   -0.0010613    -0.1753375   -0.1356860 
   9.380000000     0.0219498    0.0450901    -0.0013937   -0.0057427    -0.0013508   -0.0056706    -0.1810205   -0.0997462 
   9.400000000     0.0059647    0.0476067    -0.0050936    0.0014639    -0.0049965    0.0014531    -0.1457742   -0.0710391 
   9.420000000     0.0735131    0.0475830     0.0001730    0.0046048     0.0001567    0.0045270    -0.1852115   -0.0862788 
   9.440000000     0.0132019    0.0030081     0.0056353    0.0004031     0.0056006    0.0003569    -0.2056737   -0.0822891 
   9.460000000    -0.0264216    0.0226948     0.0000644   -0.0060022    -0.0000058   -0.0059152    -0.2108835   -0.0375452 
   9.480000000     0.0373194    0.0103852    -0.0053595    0.0007773    -0.0052228    0.0008234    -0.2071600   -0.0239758 
   9.500000000    -0.0111337    0.0067331    -0.0001664    0.0037124    -0.0001973    0.0036317    -0.2112781    0.0227357 
   9.520000000    -0.0322170    0.0189266     0.0039113    0.0018153     0.0038833    0.0018336    -0.1820638    0.0001480 
   9.540000000    -0.0119844   -0.0104453     0.0024617   -0.0045891     0.0024715   -0.0045752    -0.2057109    0.0002196 
   9.560000000     0.0085187    0.0199285    -0.0050627   -0.0020656    -0.0050368   -0.0021052    -0.2150791    0.0262528 
   9.580000000     0.0258624    0.0475484    -0.0020934    0.0041018    -0.0020725    0.0040707    -0.1971406    0.0710415 
   9.600000000     0.0045481    0.0463436     0.0036619    0.0032510     0.0036648    0.0032788    -0.1482340    0.0304836 
   9.620000000     0.0244609   -0.0008028     0.0043404   -0.0043512     0.0042576   -0.0044123    -0.2263891    0.0269394 
   9.640000000     0.0097232   -0.0322929    -0.0052003   -0.0037571    -0.0051125   -0.0036927    -0.2356249    0.0992059 
   9.660000000    -0.0146866   -0.0301305    -0.0030355    0.0048234    -0.0030163    0.0048199    -0.2019277    0.1205380 
   9.680000000    -0.0100926   -0.0705243     0.0036686    0.0029840     0.0036028    0.0029381    -0.1692924    0.0907382 
   9.700000000    -0.0199106   -0.0554999     0.0040630   -0.0034881     0.0040532   -0.0034702    -0.2287886    0.1279812 
   9.720000000    -0.0200799   -0.0137518    -0.0041301   -0.0037261    -0.0040944   -0.0037385    -0.1746108    0.1500100 
   9.740000000    -0.1185407   -0.0476577    -0.0031289    0.0038036    -0.0031585    0.0038269    -0.1754622    0.1605912 
   9.760000000    -0.1727106   -0.0072153     0.0025081    0.0023097     0.0024156    0.0023566    -0.1592524    0.1765614 
   9.780000000    -0.1152043    0.0800631     0.0035297   -0.0011533     0.0035963   -0.0010601    -0.1449056    0.1783143 
   9.800000000    -0.0862949    0.0951476    -0.0013347   -0.0043428    -0.0013836   -0.0043409    -0.1115251    0.1722459 
   9.820000000    -0.1027486    0.0995939    -0.0043488    0.0016432    -0.0044014    0.0016289    -0.1534594    0.1651639 
   9.840000000    -0.0449091    0.1195835     0.0013001    0.0033798     0.0012015    0.0033167    -0.1571589    0.2491463 
   9.860000000     0.0027890    0.1522889     0.0036411    0.0002990     0.0036734    0.0004093    -0.0817867    0.2052820 
   9.880000000     0.0610444    0.1715445     0.0006485   -0.0047202     0.0007538   -0.0047896    -0.0987829    0.1955478 
   9.900000000     0.1174397    0.1112918    -0.0052800    0.0001299    -0.0052849    0.0001094    -0.1242814    0.2422410 
   9.920000000     0.1282912    0.0386594     0.0007247    0.0041367     0.0006161    0.0042374    -0.0738214    0.2802890 
   9.940000000     0.0930171    0.0049620     0.0030377    0.0003269     0.0030657    0.0004001    -0.0402274    0.2403440 
   9.960000000     0.0606971   -0.0458042     0.0014929   -0.0031535     0.0016075   -0.0032345    -0.0296332    0.2538425 
   9.980000000     0.0656517   -0.0935193    -0.0037952   -0.0017786    -0.0037831   -0.0018205    -0.0198974    0.2826570 
  10.000000000     0.0652879   -0.1041254    -0.0015135    0.0032464    -0.0015971    0.0033290     0.0009581    0.2557148 
